date Sat Oct 03 13:31:15.560 2026
base hex  timestamps absolute
internal events logged
Begin Triggerblock Thu Oct 09 01:53:20.0 2025
 0.000000 Start of measurement
 0.000000 2  100             Rx   d 8 15 1F 82 8D 01 00 00 00
 0.001000 2  200             Rx   d 4 70 17 00 00
 0.002000 2  3A0             Rx   d 8 4D CA 18 25 30 BB 1D 6D
 0.020000 2  100             Rx   d 8 F8 1E 82 8E 01 00 00 00
 0.040000 2  100             Rx   d 8 80 1F 82 8E 01 00 00 00
 0.051000 2  200             Rx   d 4 AE 17 00 00
 0.060000 2  100             Rx   d 8 50 1F 82 8F 01 00 00 00
 0.080000 2  100             Rx   d 8 7D 1F 82 8F 01 00 00 00
 0.100000 2  100             Rx   d 8 F5 1F 82 90 01 00 00 00
 0.101000 2  200             Rx   d 4 EC 17 00 00
 0.120000 2  100             Rx   d 8 7E 20 82 90 01 00 00 00
 0.140000 2  100             Rx   d 8 FD 1F 82 91 01 00 00 00
 0.151000 2  200             Rx   d 4 2B 18 00 00
 0.160000 2  100             Rx   d 8 3D 20 82 91 01 00 00 00
 0.180000 2  100             Rx   d 8 C6 20 82 92 01 00 00 00
 0.200000 2  100             Rx   d 8 3B 21 82 92 01 00 00 00
 0.201000 2  200             Rx   d 4 69 18 00 00
 0.220000 2  100             Rx   d 8 0A 21 82 93 01 00 00 00
 0.240000 2  100             Rx   d 8 06 21 82 93 01 00 00 00
 0.251000 2  200             Rx   d 4 A8 18 00 00
 0.260000 2  100             Rx   d 8 B9 21 82 94 01 00 00 00
 0.280000 2  100             Rx   d 8 02 21 82 94 01 00 00 00
 0.300000 2  100             Rx   d 8 ED 21 82 95 01 00 00 00
 0.301000 2  200             Rx   d 4 E6 18 00 00
 0.320000 2  100             Rx   d 8 8C 21 82 95 01 00 00 00
 0.340000 2  100             Rx   d 8 91 21 82 96 01 00 00 00
 0.351000 2  200             Rx   d 4 24 19 00 00
 0.360000 2  100             Rx   d 8 B2 21 82 96 01 00 00 00
 0.380000 2  100             Rx   d 8 08 22 82 97 01 00 00 00
 0.400000 2  100             Rx   d 8 A9 22 82 97 01 00 00 00
 0.401000 2  200             Rx   d 4 63 19 00 00
 0.420000 2  100             Rx   d 8 38 22 82 98 01 00 00 00
 0.440000 2  100             Rx   d 8 C0 22 82 98 01 00 00 00
 0.451000 2  200             Rx   d 4 A1 19 00 00
 0.460000 2  100             Rx   d 8 F5 22 82 99 01 00 00 00
 0.480000 2  100             Rx   d 8 DD 22 82 99 01 00 00 00
 0.500000 2  100             Rx   d 8 2E 23 82 9A 01 00 00 00
 0.501000 2  200             Rx   d 4 DF 19 00 00
 0.520000 2  100             Rx   d 8 E1 22 82 9A 01 00 00 00
 0.540000 2  100             Rx   d 8 08 23 82 9B 01 00 00 00
 0.551000 2  200             Rx   d 4 1D 1A 00 00
 0.560000 2  100             Rx   d 8 52 23 82 9B 01 00 00 00
 0.580000 2  100             Rx   d 8 EC 23 82 9B 01 00 00 00
 0.600000 2  100             Rx   d 8 D6 23 82 9C 01 00 00 00
 0.601000 2  200             Rx   d 4 5B 1A 00 00
 0.620000 2  100             Rx   d 8 E2 23 82 9C 01 00 00 00
 0.640000 2  100             Rx   d 8 4A 24 82 9D 01 00 00 00
 0.651000 2  200             Rx   d 4 98 1A 00 00
 0.660000 2  100             Rx   d 8 52 24 82 9D 01 00 00 00
 0.680000 2  100             Rx   d 8 54 24 82 9E 01 00 00 00
 0.700000 2  100             Rx   d 8 F1 24 82 9E 01 00 00 00
 0.701000 2  200             Rx   d 4 D6 1A 00 00
 0.720000 2  100             Rx   d 8 01 25 82 9F 01 00 00 00
 0.740000 2  100             Rx   d 8 BB 24 82 9F 01 00 00 00
 0.751000 2  200             Rx   d 4 14 1B 00 00
 0.760000 2  100             Rx   d 8 31 25 82 9F 01 00 00 00
 0.780000 2  100             Rx   d 8 4C 25 82 A0 01 00 00 00
 0.800000 2  100             Rx   d 8 C7 25 82 A0 01 00 00 00
 0.801000 2  200             Rx   d 4 51 1B 00 00
 0.820000 2  100             Rx   d 8 CA 25 82 A1 01 00 00 00
 0.840000 2  100             Rx   d 8 87 25 82 A1 01 00 00 00
 0.851000 2  200             Rx   d 4 8E 1B 00 00
 0.860000 2  100             Rx   d 8 53 26 82 A1 01 00 00 00
 0.880000 2  100             Rx   d 8 AB 25 82 A2 01 00 00 00
 0.900000 2  100             Rx   d 8 19 26 82 A2 01 00 00 00
 0.901000 2  200             Rx   d 4 CB 1B 00 00
 0.920000 2  100             Rx   d 8 91 26 82 A3 01 00 00 00
 0.940000 2  100             Rx   d 8 25 26 82 A3 01 00 00 00
 0.951000 2  200             Rx   d 4 08 1C 00 00
 0.960000 2  100             Rx   d 8 9C 26 82 A3 01 00 00 00
 0.980000 2  100             Rx   d 8 56 26 82 A4 01 00 00 00
 1.000000 2  100             Rx   d 8 13 27 82 A4 01 00 00 00
 1.001000 2  200             Rx   d 4 45 1C 00 00
 1.002000 2  3A0             Rx   d 8 A0 AE B3 FE E9 23 2F 8A
 1.020000 2  100             Rx   d 8 0A 27 82 A5 01 00 00 00
 1.040000 2  100             Rx   d 8 5D 27 82 A5 01 00 00 00
 1.051000 2  200             Rx   d 4 81 1C 00 00
 1.060000 2  100             Rx   d 8 F2 26 82 A5 01 00 00 00
 1.080000 2  100             Rx   d 8 B2 27 82 A6 01 00 00 00
 1.100000 2  100             Rx   d 8 CA 27 82 A6 01 00 00 00
 1.101000 2  200             Rx   d 4 BD 1C 00 00
 1.120000 2  100             Rx   d 8 42 28 82 A7 01 00 00 00
 1.140000 2  100             Rx   d 8 3E 28 82 A7 01 00 00 00
 1.151000 2  200             Rx   d 4 F9 1C 00 00
 1.160000 2  100             Rx   d 8 E2 27 82 A7 01 00 00 00
 1.180000 2  100             Rx   d 8 20 28 82 A8 01 00 00 00
 1.200000 2  100             Rx   d 8 88 28 82 A8 01 00 00 00
 1.201000 2  200             Rx   d 4 35 1D 00 00
 1.220000 2  100             Rx   d 8 12 28 82 A8 01 00 00 00
 1.240000 2  100             Rx   d 8 A0 28 82 A9 01 00 00 00
 1.251000 2  200             Rx   d 4 71 1D 00 00
 1.260000 2  100             Rx   d 8 7E 28 82 A9 01 00 00 00
 1.280000 2  100             Rx   d 8 97 28 82 A9 01 00 00 00
 1.300000 2  100             Rx   d 8 AD 28 82 AA 01 00 00 00
 1.301000 2  200             Rx   d 4 AC 1D 00 00
 1.320000 2  100             Rx   d 8 7C 29 82 AA 01 00 00 00
 1.340000 2  100             Rx   d 8 06 29 82 AB 01 00 00 00
 1.351000 2  200             Rx   d 4 E7 1D 00 00
 1.360000 2  100             Rx   d 8 47 29 82 AB 01 00 00 00
 1.380000 2  100             Rx   d 8 8D 29 82 AB 01 00 00 00
 1.400000 2  100             Rx   d 8 24 2A 82 AC 01 00 00 00
 1.401000 2  200             Rx   d 4 22 1E 00 00
 1.420000 2  100             Rx   d 8 8A 29 82 AC 01 00 00 00
 1.440000 2  100             Rx   d 8 06 2A 82 AC 01 00 00 00
 1.451000 2  200             Rx   d 4 5D 1E 00 00
 1.460000 2  100             Rx   d 8 41 2A 82 AC 01 00 00 00
 1.480000 2  100             Rx   d 8 B5 2A 82 AD 01 00 00 00
 1.500000 2  100             Rx   d 8 C9 2A 82 AD 01 00 00 00
 1.501000 2  200             Rx   d 4 97 1E 00 00
 1.520000 2  100             Rx   d 8 F6 2A 82 AD 01 00 00 00
 1.540000 2  100             Rx   d 8 8D 2A 82 AE 01 00 00 00
 1.551000 2  200             Rx   d 4 D1 1E 00 00
 1.560000 2  100             Rx   d 8 D0 2A 82 AE 01 00 00 00
 1.580000 2  100             Rx   d 8 E6 2A 82 AE 01 00 00 00
 1.600000 2  100             Rx   d 8 86 2B 82 AF 01 00 00 00
 1.601000 2  200             Rx   d 4 0B 1F 00 00
 1.620000 2  100             Rx   d 8 BA 2B 82 AF 01 00 00 00
 1.640000 2  100             Rx   d 8 1B 2B 82 AF 01 00 00 00
 1.651000 2  200             Rx   d 4 44 1F 00 00
 1.660000 2  100             Rx   d 8 43 2B 82 B0 01 00 00 00
 1.680000 2  100             Rx   d 8 72 2B 82 B0 01 00 00 00
 1.700000 2  100             Rx   d 8 94 2B 82 B0 01 00 00 00
 1.701000 2  200             Rx   d 4 7D 1F 00 00
 1.720000 2  100             Rx   d 8 F3 2B 82 B0 01 00 00 00
 1.740000 2  100             Rx   d 8 2D 2C 82 B1 01 00 00 00
 1.751000 2  200             Rx   d 4 B6 1F 00 00
 1.760000 2  100             Rx   d 8 00 2C 82 B1 01 00 00 00
 1.780000 2  100             Rx   d 8 E3 2B 82 B1 01 00 00 00
 1.800000 2  100             Rx   d 8 68 2C 82 B1 01 00 00 00
 1.801000 2  200             Rx   d 4 EE 1F 00 00
 1.820000 2  100             Rx   d 8 7D 2C 82 B2 01 00 00 00
 1.840000 2  100             Rx   d 8 CD 2C 82 B2 01 00 00 00
 1.851000 2  200             Rx   d 4 26 20 00 00
 1.860000 2  100             Rx   d 8 4A 2D 82 B2 01 00 00 00
 1.880000 2  100             Rx   d 8 2C 2D 82 B3 01 00 00 00
 1.900000 2  100             Rx   d 8 22 2D 82 B3 01 00 00 00
 1.901000 2  200             Rx   d 4 5E 20 00 00
 1.920000 2  100             Rx   d 8 5B 2D 82 B3 01 00 00 00
 1.940000 2  100             Rx   d 8 89 2D 82 B3 01 00 00 00
 1.951000 2  200             Rx   d 4 96 20 00 00
 1.960000 2  100             Rx   d 8 13 2D 82 B3 01 00 00 00
 1.980000 2  100             Rx   d 8 FE 2D 82 B4 01 00 00 00
 2.000000 2  100             Rx   d 8 01 2E 82 B4 01 00 00 00
 2.001000 2  200             Rx   d 4 CD 20 00 00
 2.002000 2  3A0             Rx   d 8 C8 CB CC C9 35 F6 CD 1F
 2.020000 2  100             Rx   d 8 93 2D 82 B4 01 00 00 00
 2.040000 2  100             Rx   d 8 71 2E 82 B4 01 00 00 00
 2.051000 2  200             Rx   d 4 03 21 00 00
 2.060000 2  100             Rx   d 8 0D 2E 82 B5 01 00 00 00
 2.080000 2  100             Rx   d 8 DD 2D 82 B5 01 00 00 00
 2.100000 2  100             Rx   d 8 71 2E 82 B5 01 00 00 00
 2.101000 2  200             Rx   d 4 3A 21 00 00
 2.120000 2  100             Rx   d 8 18 2E 82 B5 01 00 00 00
 2.140000 2  100             Rx   d 8 A6 2E 82 B5 01 00 00 00
 2.151000 2  200             Rx   d 4 6F 21 00 00
 2.160000 2  100             Rx   d 8 BD 2E 82 B6 01 00 00 00
 2.180000 2  100             Rx   d 8 3E 2F 82 B6 01 00 00 00
 2.200000 2  100             Rx   d 8 0B 2F 82 B6 01 00 00 00
 2.201000 2  200             Rx   d 4 A5 21 00 00
 2.220000 2  100             Rx   d 8 A6 2E 82 B6 01 00 00 00
 2.240000 2  100             Rx   d 8 E5 2E 82 B6 01 00 00 00
 2.251000 2  200             Rx   d 4 DA 21 00 00
 2.260000 2  100             Rx   d 8 2A 2F 82 B7 01 00 00 00
 2.280000 2  100             Rx   d 8 85 2F 82 B7 01 00 00 00
 2.300000 2  100             Rx   d 8 EF 2F 82 B7 01 00 00 00
 2.301000 2  200             Rx   d 4 0F 22 00 00
 2.320000 2  100             Rx   d 8 B7 2F 82 B7 01 00 00 00
 2.340000 2  100             Rx   d 8 B5 2F 82 B7 01 00 00 00
 2.351000 2  200             Rx   d 4 43 22 00 00
 2.360000 2  100             Rx   d 8 7B 2F 82 B7 01 00 00 00
 2.380000 2  100             Rx   d 8 F1 2F 82 B8 01 00 00 00
 2.400000 2  100             Rx   d 8 82 30 82 B8 01 00 00 00
 2.401000 2  200             Rx   d 4 77 22 00 00
 2.420000 2  100             Rx   d 8 27 30 82 B8 01 00 00 00
 2.440000 2  100             Rx   d 8 1A 30 82 B8 01 00 00 00
 2.451000 2  200             Rx   d 4 AA 22 00 00
 2.460000 2  100             Rx   d 8 0D 30 82 B8 01 00 00 00
 2.480000 2  100             Rx   d 8 B9 30 82 B8 01 00 00 00
 2.500000 2  100             Rx   d 8 D2 30 82 B9 01 00 00 00
 2.501000 2  200             Rx   d 4 DD 22 00 00
 2.520000 2  100             Rx   d 8 AE 30 83 B9 01 00 00 00
 2.540000 2  100             Rx   d 8 FC 30 83 B9 01 00 00 00
 2.551000 2  200             Rx   d 4 0F 23 00 00
 2.560000 2  100             Rx   d 8 EC 30 83 B9 01 00 00 00
 2.580000 2  100             Rx   d 8 BC 30 83 B9 01 00 00 00
 2.600000 2  100             Rx   d 8 89 31 83 B9 01 00 00 00
 2.601000 2  200             Rx   d 4 41 23 00 00
 2.620000 2  100             Rx   d 8 15 31 83 B9 01 00 00 00
 2.640000 2  100             Rx   d 8 7E 31 83 B9 01 00 00 00
 2.651000 2  200             Rx   d 4 73 23 00 00
 2.660000 2  100             Rx   d 8 CD 31 83 BA 01 00 00 00
 2.680000 2  100             Rx   d 8 C0 31 83 BA 01 00 00 00
 2.700000 2  100             Rx   d 8 6B 31 83 BA 01 00 00 00
 2.701000 2  200             Rx   d 4 A4 23 00 00
 2.720000 2  100             Rx   d 8 D7 31 83 BA 01 00 00 00
 2.740000 2  100             Rx   d 8 6B 31 83 BA 01 00 00 00
 2.751000 2  200             Rx   d 4 D5 23 00 00
 2.760000 2  100             Rx   d 8 38 32 83 BA 01 00 00 00
 2.780000 2  100             Rx   d 8 02 32 83 BA 01 00 00 00
 2.800000 2  100             Rx   d 8 77 32 83 BA 01 00 00 00
 2.801000 2  200             Rx   d 4 05 24 00 00
 2.820000 2  100             Rx   d 8 0A 32 83 BA 01 00 00 00
 2.840000 2  100             Rx   d 8 02 32 83 BA 01 00 00 00
 2.851000 2  200             Rx   d 4 34 24 00 00
 2.860000 2  100             Rx   d 8 66 32 83 BA 01 00 00 00
 2.880000 2  100             Rx   d 8 73 32 83 BA 01 00 00 00
 2.900000 2  100             Rx   d 8 AA 32 83 BB 01 00 00 00
 2.901000 2  200             Rx   d 4 63 24 00 00
 2.920000 2  100             Rx   d 8 BB 32 83 BB 01 00 00 00
 2.940000 2  100             Rx   d 8 FC 32 83 BB 01 00 00 00
 2.951000 2  200             Rx   d 4 92 24 00 00
 2.960000 2  100             Rx   d 8 0B 33 83 BB 01 00 00 00
 2.980000 2  100             Rx   d 8 99 32 83 BB 01 00 00 00
 3.000000 2  100             Rx   d 8 BA 32 83 BB 01 00 00 00
 3.001000 2  200             Rx   d 4 C0 24 00 00
 3.002000 2  3A0             Rx   d 8 CD 74 66 FC B6 0E 0E 8F
 3.020000 2  100             Rx   d 8 07 33 83 BB 01 00 00 00
 3.040000 2  100             Rx   d 8 DA 32 83 BB 01 00 00 00
 3.051000 2  200             Rx   d 4 ED 24 00 00
 3.060000 2  100             Rx   d 8 51 33 83 BB 01 00 00 00
 3.080000 2  100             Rx   d 8 28 33 83 BB 01 00 00 00
 3.100000 2  100             Rx   d 8 AC 33 83 BB 01 00 00 00
 3.101000 2  200             Rx   d 4 1A 25 00 00
 3.120000 2  100             Rx   d 8 AB 33 83 BB 01 00 00 00
 3.140000 2  100             Rx   d 8 66 33 83 BB 01 00 00 00
 3.151000 2  200             Rx   d 4 46 25 00 00
 3.160000 2  100             Rx   d 8 10 34 83 BB 01 00 00 00
 3.180000 2  100             Rx   d 8 4D 33 83 BB 01 00 00 00
 3.200000 2  100             Rx   d 8 66 33 83 BB 01 00 00 00
 3.201000 2  200             Rx   d 4 72 25 00 00
 3.220000 2  100             Rx   d 8 D1 33 83 BB 01 00 00 00
 3.240000 2  100             Rx   d 8 C4 33 83 BB 01 00 00 00
 3.251000 2  200             Rx   d 4 9E 25 00 00
 3.260000 2  100             Rx   d 8 FA 33 83 BB 01 00 00 00
 3.280000 2  100             Rx   d 8 85 34 83 BB 01 00 00 00
 3.300000 2  100             Rx   d 8 3D 34 83 BB 01 00 00 00
 3.301000 2  200             Rx   d 4 C8 25 00 00
 3.320000 2  100             Rx   d 8 BD 33 83 BB 01 00 00 00
 3.340000 2  100             Rx   d 8 A9 34 83 BB 01 00 00 00
 3.351000 2  200             Rx   d 4 F2 25 00 00
 3.360000 2  100             Rx   d 8 33 34 83 BB 01 00 00 00
 3.380000 2  100             Rx   d 8 8C 34 83 BB 01 00 00 00
 3.400000 2  100             Rx   d 8 CB 34 83 BB 01 00 00 00
 3.401000 2  200             Rx   d 4 1C 26 00 00
 3.420000 2  100             Rx   d 8 30 34 83 BB 01 00 00 00
 3.440000 2  100             Rx   d 8 81 34 83 BB 01 00 00 00
 3.451000 2  200             Rx   d 4 45 26 00 00
 3.460000 2  100             Rx   d 8 DF 34 83 BB 01 00 00 00
 3.480000 2  100             Rx   d 8 74 34 83 BB 01 00 00 00
 3.500000 2  100             Rx   d 8 2A 35 83 BB 01 00 00 00
 3.501000 2  200             Rx   d 4 6D 26 00 00
 3.520000 2  100             Rx   d 8 CC 34 83 BB 01 00 00 00
 3.540000 2  100             Rx   d 8 0C 35 83 BA 01 00 00 00
 3.551000 2  200             Rx   d 4 95 26 00 00
 3.560000 2  100             Rx   d 8 97 34 83 BA 01 00 00 00
 3.580000 2  100             Rx   d 8 74 35 83 BA 01 00 00 00
 3.600000 2  100             Rx   d 8 4D 35 83 BA 01 00 00 00
 3.601000 2  200             Rx   d 4 BC 26 00 00
 3.620000 2  100             Rx   d 8 1D 35 83 BA 01 00 00 00
 3.640000 2  100             Rx   d 8 6F 35 83 BA 01 00 00 00
 3.651000 2  200             Rx   d 4 E3 26 00 00
 3.660000 2  100             Rx   d 8 DE 34 83 BA 01 00 00 00
 3.680000 2  100             Rx   d 8 FE 34 83 BA 01 00 00 00
 3.700000 2  100             Rx   d 8 D3 35 83 BA 01 00 00 00
 3.701000 2  200             Rx   d 4 09 27 00 00
 3.720000 2  100             Rx   d 8 F9 34 83 BA 01 00 00 00
 3.740000 2  100             Rx   d 8 8D 35 83 BA 01 00 00 00
 3.751000 2  200             Rx   d 4 2E 27 00 00
 3.760000 2  100             Rx   d 8 7B 35 83 BA 01 00 00 00
 3.780000 2  100             Rx   d 8 B5 35 83 B9 01 00 00 00
 3.800000 2  100             Rx   d 8 B7 35 83 B9 01 00 00 00
 3.801000 2  200             Rx   d 4 53 27 00 00
 3.820000 2  100             Rx   d 8 BF 35 83 B9 01 00 00 00
 3.840000 2  100             Rx   d 8 AD 35 83 B9 01 00 00 00
 3.851000 2  200             Rx   d 4 77 27 00 00
 3.860000 2  100             Rx   d 8 28 36 83 B9 01 00 00 00
 3.880000 2  100             Rx   d 8 77 35 83 B9 01 00 00 00
 3.900000 2  100             Rx   d 8 E0 35 83 B9 01 00 00 00
 3.901000 2  200             Rx   d 4 9A 27 00 00
 3.920000 2  100             Rx   d 8 6D 35 83 B9 01 00 00 00
 3.940000 2  100             Rx   d 8 32 36 83 B8 01 00 00 00
 3.951000 2  200             Rx   d 4 BD 27 00 00
 3.960000 2  100             Rx   d 8 2A 36 83 B8 01 00 00 00
 3.980000 2  100             Rx   d 8 9E 35 83 B8 01 00 00 00
 4.000000 2  100             Rx   d 8 43 36 83 B8 01 00 00 00
 4.001000 2  200             Rx   d 4 DF 27 00 00
 4.002000 2  3A0             Rx   d 8 47 DE 63 6C 0E 80 6C 95
 4.020000 2  100             Rx   d 8 11 36 83 B8 01 00 00 00
 4.040000 2  100             Rx   d 8 59 36 83 B8 01 00 00 00
 4.051000 2  200             Rx   d 4 00 28 00 00
 4.060000 2  100             Rx   d 8 F8 35 83 B8 01 00 00 00
 4.080000 2  100             Rx   d 8 35 36 83 B7 01 00 00 00
 4.100000 2  100             Rx   d 8 83 36 83 B7 01 00 00 00
 4.101000 2  200             Rx   d 4 21 28 00 00
 4.120000 2  100             Rx   d 8 D2 35 83 B7 01 00 00 00
 4.140000 2  100             Rx   d 8 7C 36 83 B7 01 00 00 00
 4.151000 2  200             Rx   d 4 41 28 00 00
 4.160000 2  100             Rx   d 8 AA 36 83 B7 01 00 00 00
 4.180000 2  100             Rx   d 8 78 36 83 B6 01 00 00 00
 4.200000 2  100             Rx   d 8 A4 36 83 B6 01 00 00 00
 4.201000 2  200             Rx   d 4 61 28 00 00
 4.220000 2  100             Rx   d 8 63 36 83 B6 01 00 00 00
 4.240000 2  100             Rx   d 8 B4 36 83 B6 01 00 00 00
 4.251000 2  200             Rx   d 4 7F 28 00 00
 4.260000 2  100             Rx   d 8 C6 36 83 B6 01 00 00 00
 4.280000 2  100             Rx   d 8 19 36 83 B6 01 00 00 00
 4.300000 2  100             Rx   d 8 23 36 83 B5 01 00 00 00
 4.301000 2  200             Rx   d 4 9D 28 00 00
 4.320000 2  100             Rx   d 8 7F 36 83 B5 01 00 00 00
 4.340000 2  100             Rx   d 8 DB 36 83 B5 01 00 00 00
 4.351000 2  200             Rx   d 4 BB 28 00 00
 4.360000 2  100             Rx   d 8 C9 36 83 B5 01 00 00 00
 4.380000 2  100             Rx   d 8 A5 36 83 B4 01 00 00 00
 4.400000 2  100             Rx   d 8 D1 36 83 B4 01 00 00 00
 4.401000 2  200             Rx   d 4 D8 28 00 00
 4.420000 2  100             Rx   d 8 3F 36 83 B4 01 00 00 00
 4.440000 2  100             Rx   d 8 41 36 83 B4 01 00 00 00
 4.451000 2  200             Rx   d 4 F4 28 00 00
 4.460000 2  100             Rx   d 8 B7 36 83 B4 01 00 00 00
 4.480000 2  100             Rx   d 8 42 36 83 B3 01 00 00 00
 4.500000 2  100             Rx   d 8 37 36 83 B3 01 00 00 00
 4.501000 2  200             Rx   d 4 0F 29 00 00
 4.520000 2  100             Rx   d 8 CF 36 83 B3 01 00 00 00
 4.540000 2  100             Rx   d 8 AD 36 83 B3 01 00 00 00
 4.551000 2  200             Rx   d 4 29 29 00 00
 4.560000 2  100             Rx   d 8 A4 36 83 B2 01 00 00 00
 4.580000 2  100             Rx   d 8 EC 36 83 B2 01 00 00 00
 4.600000 2  100             Rx   d 8 07 37 83 B2 01 00 00 00
 4.601000 2  200             Rx   d 4 43 29 00 00
 4.620000 2  100             Rx   d 8 42 36 83 B2 01 00 00 00
 4.640000 2  100             Rx   d 8 64 36 83 B1 01 00 00 00
 4.651000 2  200             Rx   d 4 5C 29 00 00
 4.660000 2  100             Rx   d 8 41 36 83 B1 01 00 00 00
 4.680000 2  100             Rx   d 8 4F 36 83 B1 01 00 00 00
 4.700000 2  100             Rx   d 8 A4 36 83 B0 01 00 00 00
 4.701000 2  200             Rx   d 4 75 29 00 00
 4.720000 2  100             Rx   d 8 3E 36 83 B0 01 00 00 00
 4.740000 2  100             Rx   d 8 0E 37 83 B0 01 00 00 00
 4.751000 2  200             Rx   d 4 8D 29 00 00
 4.760000 2  100             Rx   d 8 46 36 83 B0 01 00 00 00
 4.780000 2  100             Rx   d 8 84 36 83 AF 01 00 00 00
 4.800000 2  100             Rx   d 8 1F 37 83 AF 01 00 00 00
 4.801000 2  200             Rx   d 4 A4 29 00 00
 4.820000 2  100             Rx   d 8 C5 36 83 AF 01 00 00 00
 4.840000 2  100             Rx   d 8 62 36 83 AE 01 00 00 00
 4.851000 2  200             Rx   d 4 BA 29 00 00
 4.860000 2  100             Rx   d 8 73 36 83 AE 01 00 00 00
 4.880000 2  100             Rx   d 8 A8 36 83 AE 01 00 00 00
 4.900000 2  100             Rx   d 8 EE 36 83 AE 01 00 00 00
 4.901000 2  200             Rx   d 4 D0 29 00 00
 4.920000 2  100             Rx   d 8 A3 36 83 AD 01 00 00 00
 4.940000 2  100             Rx   d 8 62 36 83 AD 01 00 00 00
 4.951000 2  200             Rx   d 4 E4 29 00 00
 4.960000 2  100             Rx   d 8 A1 36 83 AD 01 00 00 00
 4.980000 2  100             Rx   d 8 F2 36 83 AC 01 00 00 00
 5.000000 2  100             Rx   d 8 FB 36 83 AC 01 00 00 00
 5.001000 2  200             Rx   d 4 F8 29 00 00
 5.002000 2  3A0             Rx   d 8 67 E5 46 D5 3E C8 E2 A1
 5.020000 2  100             Rx   d 8 29 36 83 AC 01 00 00 00
 5.040000 2  100             Rx   d 8 4E 36 83 AB 01 00 00 00
 5.051000 2  200             Rx   d 4 0C 2A 00 00
 5.060000 2  100             Rx   d 8 21 36 84 AB 01 00 00 00
 5.080000 2  100             Rx   d 8 AB 36 84 AB 01 00 00 00
 5.100000 2  100             Rx   d 8 C2 36 84 AA 01 00 00 00
 5.101000 2  200             Rx   d 4 1E 2A 00 00
 5.120000 2  100             Rx   d 8 D7 36 84 AA 01 00 00 00
 5.140000 2  100             Rx   d 8 20 36 84 AA 01 00 00 00
 5.151000 2  200             Rx   d 4 30 2A 00 00
 5.160000 2  100             Rx   d 8 A1 36 84 A9 01 00 00 00
 5.180000 2  100             Rx   d 8 8D 36 84 A9 01 00 00 00
 5.200000 2  100             Rx   d 8 0B 36 84 A8 01 00 00 00
 5.201000 2  200             Rx   d 4 41 2A 00 00
 5.220000 2  100             Rx   d 8 B6 36 84 A8 01 00 00 00
 5.240000 2  100             Rx   d 8 C3 36 84 A8 01 00 00 00
 5.251000 2  200             Rx   d 4 52 2A 00 00
 5.260000 2  100             Rx   d 8 09 36 84 A7 01 00 00 00
 5.280000 2  100             Rx   d 8 B1 36 84 A7 01 00 00 00
 5.300000 2  100             Rx   d 8 24 36 84 A7 01 00 00 00
 5.301000 2  200             Rx   d 4 61 2A 00 00
 5.320000 2  100             Rx   d 8 32 36 84 A6 01 00 00 00
 5.340000 2  100             Rx   d 8 A2 36 84 A6 01 00 00 00
 5.351000 2  200             Rx   d 4 70 2A 00 00
 5.360000 2  100             Rx   d 8 74 36 84 A6 01 00 00 00
 5.380000 2  100             Rx   d 8 CA 35 84 A5 01 00 00 00
 5.400000 2  100             Rx   d 8 02 36 84 A5 01 00 00 00
 5.401000 2  200             Rx   d 4 7E 2A 00 00
 5.420000 2  100             Rx   d 8 0D 36 84 A4 01 00 00 00
 5.440000 2  100             Rx   d 8 D9 35 84 A4 01 00 00 00
 5.451000 2  200             Rx   d 4 8B 2A 00 00
 5.460000 2  100             Rx   d 8 AD 35 84 A4 01 00 00 00
 5.480000 2  100             Rx   d 8 C1 35 84 A3 01 00 00 00
 5.500000 2  100             Rx   d 8 17 36 84 A3 01 00 00 00
 5.501000 2  200             Rx   d 4 98 2A 00 00
 5.520000 2  100             Rx   d 8 64 35 84 A2 01 00 00 00
 5.540000 2  100             Rx   d 8 DA 35 84 A2 01 00 00 00
 5.551000 2  200             Rx   d 4 A4 2A 00 00
 5.560000 2  100             Rx   d 8 B3 35 84 A2 01 00 00 00
 5.580000 2  100             Rx   d 8 43 35 84 A1 01 00 00 00
 5.600000 2  100             Rx   d 8 82 35 84 A1 01 00 00 00
 5.601000 2  200             Rx   d 4 AF 2A 00 00
 5.620000 2  100             Rx   d 8 BD 35 84 A0 01 00 00 00
 5.640000 2  100             Rx   d 8 96 35 84 A0 01 00 00 00
 5.651000 2  200             Rx   d 4 B9 2A 00 00
 5.660000 2  100             Rx   d 8 1E 35 84 9F 01 00 00 00
 5.680000 2  100             Rx   d 8 EF 35 84 9F 01 00 00 00
 5.700000 2  100             Rx   d 8 B3 35 84 9F 01 00 00 00
 5.701000 2  200             Rx   d 4 C2 2A 00 00
 5.720000 2  100             Rx   d 8 D1 35 84 9E 01 00 00 00
 5.740000 2  100             Rx   d 8 F4 34 84 9E 01 00 00 00
 5.751000 2  200             Rx   d 4 CB 2A 00 00
 5.760000 2  100             Rx   d 8 0D 35 84 9D 01 00 00 00
 5.780000 2  100             Rx   d 8 C9 34 84 9D 01 00 00 00
 5.800000 2  100             Rx   d 8 6C 35 84 9C 01 00 00 00
 5.801000 2  200             Rx   d 4 D3 2A 00 00
 5.820000 2  100             Rx   d 8 E4 34 84 9C 01 00 00 00
 5.840000 2  100             Rx   d 8 B4 34 84 9C 01 00 00 00
 5.851000 2  200             Rx   d 4 DA 2A 00 00
 5.860000 2  100             Rx   d 8 EB 34 84 9B 01 00 00 00
 5.880000 2  100             Rx   d 8 52 35 84 9B 01 00 00 00
 5.900000 2  100             Rx   d 8 2C 35 84 9A 01 00 00 00
 5.901000 2  200             Rx   d 4 E1 2A 00 00
 5.920000 2  100             Rx   d 8 96 34 84 9A 01 00 00 00
 5.940000 2  100             Rx   d 8 6C 34 84 99 01 00 00 00
 5.951000 2  200             Rx   d 4 E6 2A 00 00
 5.960000 2  100             Rx   d 8 15 35 84 99 01 00 00 00
 5.980000 2  100             Rx   d 8 B1 34 84 98 01 00 00 00
 6.000000 2  100             Rx   d 8 BF 34 84 98 02 00 00 00
 6.001000 2  200             Rx   d 4 EB 2A 00 00
 6.002000 2  3A0             Rx   d 8 2D 8E 1D 5D D9 25 89 08
 6.020000 2  100             Rx   d 8 9F 34 84 97 02 00 00 00
 6.040000 2  100             Rx   d 8 B6 34 84 97 02 00 00 00
 6.051000 2  200             Rx   d 4 EF 2A 00 00
 6.060000 2  100             Rx   d 8 F8 33 84 96 02 00 00 00
 6.080000 2  100             Rx   d 8 A0 34 84 96 02 00 00 00
 6.100000 2  100             Rx   d 8 D1 33 84 96 02 00 00 00
 6.101000 2  200             Rx   d 4 F2 2A 00 00
 6.120000 2  100             Rx   d 8 7E 34 84 95 02 00 00 00
 6.140000 2  100             Rx   d 8 0A 34 84 95 02 00 00 00
 6.151000 2  200             Rx   d 4 F5 2A 00 00
 6.160000 2  100             Rx   d 8 DC 33 84 94 02 00 00 00
 6.180000 2  100             Rx   d 8 FC 33 84 94 02 00 00 00
 6.200000 2  100             Rx   d 8 43 34 84 93 02 00 00 00
 6.201000 2  200             Rx   d 4 F6 2A 00 00
 6.220000 2  100             Rx   d 8 92 33 84 93 02 00 00 00
 6.240000 2  100             Rx   d 8 5D 33 84 92 02 00 00 00
 6.251000 2  200             Rx   d 4 F7 2A 00 00
 6.260000 2  100             Rx   d 8 A9 33 84 92 02 00 00 00
 6.280000 2  100             Rx   d 8 50 33 84 91 02 00 00 00
 6.300000 2  100             Rx   d 8 1D 33 84 91 02 00 00 00
 6.301000 2  200             Rx   d 4 F7 2A 00 00
 6.320000 2  100             Rx   d 8 15 33 84 90 02 00 00 00
 6.340000 2  100             Rx   d 8 E6 32 84 90 02 00 00 00
 6.351000 2  200             Rx   d 4 F7 2A 00 00
 6.360000 2  100             Rx   d 8 F6 32 84 8F 02 00 00 00
 6.380000 2  100             Rx   d 8 FB 32 84 8F 02 00 00 00
 6.400000 2  100             Rx   d 8 E4 32 84 8E 02 00 00 00
 6.401000 2  200             Rx   d 4 F5 2A 00 00
 6.420000 2  100             Rx   d 8 3C 33 84 8E 02 00 00 00
 6.440000 2  100             Rx   d 8 B5 32 84 8D 02 00 00 00
 6.451000 2  200             Rx   d 4 F3 2A 00 00
 6.460000 2  100             Rx   d 8 D2 32 84 8D 02 00 00 00
 6.480000 2  100             Rx   d 8 6E 32 84 8C 02 00 00 00
 6.500000 2  100             Rx   d 8 81 32 84 8C 02 00 00 00
 6.501000 2  200             Rx   d 4 F0 2A 00 00
 6.520000 2  100             Rx   d 8 1B 32 84 8B 02 00 00 00
 6.540000 2  100             Rx   d 8 3C 32 84 8A 02 00 00 00
 6.551000 2  200             Rx   d 4 EC 2A 00 00
 6.560000 2  100             Rx   d 8 ED 31 84 8A 02 00 00 00
 6.580000 2  100             Rx   d 8 82 32 84 89 02 00 00 00
 6.600000 2  100             Rx   d 8 3F 32 84 89 02 00 00 00
 6.601000 2  200             Rx   d 4 E8 2A 00 00
 6.620000 2  100             Rx   d 8 D0 31 84 88 02 00 00 00
 6.640000 2  100             Rx   d 8 FD 31 84 88 02 00 00 00
 6.651000 2  200             Rx   d 4 E2 2A 00 00
 6.660000 2  100             Rx   d 8 53 32 84 87 02 00 00 00
 6.680000 2  100             Rx   d 8 74 31 84 87 02 00 00 00
 6.700000 2  100             Rx   d 8 07 32 84 86 02 00 00 00
 6.701000 2  200             Rx   d 4 DC 2A 00 00
 6.720000 2  100             Rx   d 8 91 31 84 86 02 00 00 00
 6.740000 2  100             Rx   d 8 87 31 84 85 02 00 00 00
 6.751000 2  200             Rx   d 4 D5 2A 00 00
 6.760000 2  100             Rx   d 8 C0 31 84 85 02 00 00 00
 6.780000 2  100             Rx   d 8 3C 31 84 84 02 00 00 00
 6.800000 2  100             Rx   d 8 3E 31 84 84 02 00 00 00
 6.801000 2  200             Rx   d 4 CE 2A 00 00
 6.820000 2  100             Rx   d 8 50 31 84 83 02 00 00 00
 6.840000 2  100             Rx   d 8 7D 31 84 82 02 00 00 00
 6.851000 2  200             Rx   d 4 C5 2A 00 00
 6.860000 2  100             Rx   d 8 C9 30 84 82 02 00 00 00
 6.880000 2  100             Rx   d 8 24 31 84 81 02 00 00 00
 6.900000 2  100             Rx   d 8 EB 30 84 81 02 00 00 00
 6.901000 2  200             Rx   d 4 BC 2A 00 00
 6.920000 2  100             Rx   d 8 C0 30 84 80 02 00 00 00
 6.940000 2  100             Rx   d 8 6D 30 84 80 02 00 00 00
 6.951000 2  200             Rx   d 4 B2 2A 00 00
 6.960000 2  100             Rx   d 8 44 30 84 7F 02 00 00 00
 6.980000 2  100             Rx   d 8 E3 2F 84 7F 02 00 00 00
 7.000000 2  100             Rx   d 8 D9 2F 84 7E 02 00 00 00
 7.001000 2  200             Rx   d 4 A7 2A 00 00
 7.002000 2  3A0             Rx   d 8 24 82 DC 53 1C 2B C3 90
 7.020000 2  100             Rx   d 8 2E 30 84 7D 02 00 00 00
 7.040000 2  100             Rx   d 8 29 30 84 7D 02 00 00 00
 7.051000 2  200             Rx   d 4 9C 2A 00 00
 7.060000 2  100             Rx   d 8 71 2F 84 7C 02 00 00 00
 7.080000 2  100             Rx   d 8 76 2F 84 7C 02 00 00 00
 7.100000 2  100             Rx   d 8 6E 2F 84 7B 02 00 00 00
 7.101000 2  200             Rx   d 4 90 2A 00 00
 7.120000 2  100             Rx   d 8 12 2F 84 7B 02 00 00 00
 7.140000 2  100             Rx   d 8 4B 2F 84 7A 02 00 00 00
 7.151000 2  200             Rx   d 4 83 2A 00 00
 7.160000 2  100             Rx   d 8 26 2F 84 7A 02 00 00 00
 7.180000 2  100             Rx   d 8 A6 2F 84 79 02 00 00 00
 7.200000 2  100             Rx   d 8 EA 2E 84 78 02 00 00 00
 7.201000 2  200             Rx   d 4 75 2A 00 00
 7.220000 2  100             Rx   d 8 87 2E 84 78 02 00 00 00
 7.240000 2  100             Rx   d 8 35 2F 84 77 02 00 00 00
 7.251000 2  200             Rx   d 4 66 2A 00 00
 7.260000 2  100             Rx   d 8 77 2E 84 77 02 00 00 00
 7.280000 2  100             Rx   d 8 51 2E 84 76 02 00 00 00
 7.300000 2  100             Rx   d 8 57 2E 84 76 02 00 00 00
 7.301000 2  200             Rx   d 4 57 2A 00 00
 7.320000 2  100             Rx   d 8 FC 2D 84 75 02 00 00 00
 7.340000 2  100             Rx   d 8 0C 2E 84 74 02 00 00 00
 7.351000 2  200             Rx   d 4 47 2A 00 00
 7.360000 2  100             Rx   d 8 48 2E 84 74 02 00 00 00
 7.380000 2  100             Rx   d 8 C7 2D 84 73 02 00 00 00
 7.400000 2  100             Rx   d 8 27 2E 84 73 02 00 00 00
 7.401000 2  200             Rx   d 4 36 2A 00 00
 7.420000 2  100             Rx   d 8 63 2D 84 72 02 00 00 00
 7.440000 2  100             Rx   d 8 F2 2D 84 72 02 00 00 00
 7.451000 2  200             Rx   d 4 24 2A 00 00
 7.460000 2  100             Rx   d 8 31 2D 84 71 02 00 00 00
 7.480000 2  100             Rx   d 8 7B 2D 84 70 02 00 00 00
 7.500000 2  100             Rx   d 8 2D 2D 84 70 02 00 00 00
 7.501000 2  200             Rx   d 4 12 2A 00 00
 7.520000 2  100             Rx   d 8 F6 2C 84 6F 02 00 00 00
 7.540000 2  100             Rx   d 8 25 2D 84 6F 02 00 00 00
 7.551000 2  200             Rx   d 4 FF 29 00 00
 7.560000 2  100             Rx   d 8 82 2C 84 6E 02 00 00 00
 7.580000 2  100             Rx   d 8 33 2D 84 6E 02 00 00 00
 7.600000 2  100             Rx   d 8 F9 2C 84 6D 02 00 00 00
 7.601000 2  200             Rx   d 4 EB 29 00 00
 7.620000 2  100             Rx   d 8 30 2C 84 6C 02 00 00 00
 7.640000 2  100             Rx   d 8 C0 2C 84 6C 02 00 00 00
 7.651000 2  200             Rx   d 4 D6 29 00 00
 7.660000 2  100             Rx   d 8 85 2C 84 6B 02 00 00 00
 7.680000 2  100             Rx   d 8 37 2C 84 6B 02 00 00 00
 7.700000 2  100             Rx   d 8 3E 2C 85 6A 02 00 00 00
 7.701000 2  200             Rx   d 4 C1 29 00 00
 7.720000 2  100             Rx   d 8 11 2C 85 69 02 00 00 00
 7.740000 2  100             Rx   d 8 B9 2B 85 69 02 00 00 00
 7.751000 2  200             Rx   d 4 AB 29 00 00
 7.760000 2  100             Rx   d 8 65 2B 85 68 02 00 00 00
 7.780000 2  100             Rx   d 8 93 2B 85 68 02 00 00 00
 7.800000 2  100             Rx   d 8 FF 2A 85 67 02 00 00 00
 7.801000 2  200             Rx   d 4 94 29 00 00
 7.820000 2  100             Rx   d 8 80 2B 85 67 02 00 00 00
 7.840000 2  100             Rx   d 8 43 2B 85 66 02 00 00 00
 7.851000 2  200             Rx   d 4 7D 29 00 00
 7.860000 2  100             Rx   d 8 F0 2A 85 65 02 00 00 00
 7.880000 2  100             Rx   d 8 B9 2A 85 65 02 00 00 00
 7.900000 2  100             Rx   d 8 D8 2A 85 64 02 00 00 00
 7.901000 2  200             Rx   d 4 65 29 00 00
 7.920000 2  100             Rx   d 8 86 2A 85 64 02 00 00 00
 7.940000 2  100             Rx   d 8 C4 2A 85 63 02 00 00 00
 7.951000 2  200             Rx   d 4 4C 29 00 00
 7.960000 2  100             Rx   d 8 7B 2A 85 62 02 00 00 00
 7.980000 2  100             Rx   d 8 2B 2A 85 62 02 00 00 00
 8.000000 2  100             Rx   d 8 42 2A 85 61 02 00 00 00
 8.001000 2  200             Rx   d 4 32 29 00 00
 8.002000 2  3A0             Rx   d 8 08 75 2B 0F 15 44 B8 35
 8.020000 2  100             Rx   d 8 B6 29 85 61 02 00 00 00
 8.040000 2  100             Rx   d 8 A4 29 85 60 02 00 00 00
 8.051000 2  200             Rx   d 4 18 29 00 00
 8.060000 2  100             Rx   d 8 20 29 85 60 02 00 00 00
 8.080000 2  100             Rx   d 8 F4 28 85 5F 02 00 00 00
 8.100000 2  100             Rx   d 8 4B 29 85 5E 02 00 00 00
 8.101000 2  200             Rx   d 4 FD 28 00 00
 8.120000 2  100             Rx   d 8 E2 28 85 5E 02 00 00 00
 8.140000 2  100             Rx   d 8 C3 28 85 5D 02 00 00 00
 8.151000 2  200             Rx   d 4 E1 28 00 00
 8.160000 2  100             Rx   d 8 CC 28 85 5D 02 00 00 00
 8.180000 2  100             Rx   d 8 4B 28 85 5C 02 00 00 00
 8.200000 2  100             Rx   d 8 F5 28 85 5B 02 00 00 00
 8.201000 2  200             Rx   d 4 C4 28 00 00
 8.220000 2  100             Rx   d 8 C8 28 85 5B 02 00 00 00
 8.240000 2  100             Rx   d 8 E2 27 85 5A 02 00 00 00
 8.251000 2  200             Rx   d 4 A7 28 00 00
 8.260000 2  100             Rx   d 8 25 28 85 5A 02 00 00 00
 8.280000 2  100             Rx   d 8 35 28 85 59 02 00 00 00
 8.300000 2  100             Rx   d 8 CE 27 85 59 02 00 00 00
 8.301000 2  200             Rx   d 4 89 28 00 00
 8.320000 2  100             Rx   d 8 FA 27 85 58 02 00 00 00
 8.340000 2  100             Rx   d 8 DD 27 85 57 02 00 00 00
 8.351000 2  200             Rx   d 4 6B 28 00 00
 8.360000 2  100             Rx   d 8 25 27 85 57 02 00 00 00
 8.380000 2  100             Rx   d 8 7D 27 85 56 02 00 00 00
 8.400000 2  100             Rx   d 8 D9 26 85 56 02 00 00 00
 8.401000 2  200             Rx   d 4 4C 28 00 00
 8.420000 2  100             Rx   d 8 18 27 85 55 02 00 00 00
 8.440000 2  100             Rx   d 8 C4 26 85 55 02 00 00 00
 8.451000 2  200             Rx   d 4 2C 28 00 00
 8.460000 2  100             Rx   d 8 FB 26 85 54 02 00 00 00
 8.480000 2  100             Rx   d 8 1C 26 85 53 02 00 00 00
 8.500000 2  100             Rx   d 8 BE 26 85 53 02 00 00 00
 8.501000 2  200             Rx   d 4 0B 28 00 00
 8.520000 2  100             Rx   d 8 03 26 85 52 02 00 00 00
 8.540000 2  100             Rx   d 8 A3 25 85 52 02 00 00 00
 8.551000 2  200             Rx   d 4 EA 27 00 00
 8.560000 2  100             Rx   d 8 09 26 85 51 02 00 00 00
 8.580000 2  100             Rx   d 8 7A 25 85 51 02 00 00 00
 8.600000 2  100             Rx   d 8 B4 25 85 50 02 00 00 00
 8.601000 2  200             Rx   d 4 C8 27 00 00
 8.620000 2  100             Rx   d 8 4D 25 85 4F 02 00 00 00
 8.640000 2  100             Rx   d 8 74 25 85 4F 02 00 00 00
 8.651000 2  200             Rx   d 4 A5 27 00 00
 8.660000 2  100             Rx   d 8 57 25 85 4E 02 00 00 00
 8.680000 2  100             Rx   d 8 1F 25 85 4E 02 00 00 00
 8.700000 2  100             Rx   d 8 83 24 85 4D 02 00 00 00
 8.701000 2  200             Rx   d 4 82 27 00 00
 8.720000 2  100             Rx   d 8 B0 24 85 4D 02 00 00 00
 8.740000 2  100             Rx   d 8 8A 24 85 4C 02 00 00 00
 8.751000 2  200             Rx   d 4 5E 27 00 00
 8.760000 2  100             Rx   d 8 D8 24 85 4B 02 00 00 00
 8.780000 2  100             Rx   d 8 DF 23 85 4B 02 00 00 00
 8.800000 2  100             Rx   d 8 D4 23 85 4A 02 00 00 00
 8.801000 2  200             Rx   d 4 3A 27 00 00
 8.820000 2  100             Rx   d 8 EE 23 85 4A 02 00 00 00
 8.840000 2  100             Rx   d 8 FC 23 85 49 02 00 00 00
 8.851000 2  200             Rx   d 4 15 27 00 00
 8.860000 2  100             Rx   d 8 6F 23 85 49 02 00 00 00
 8.880000 2  100             Rx   d 8 73 23 85 48 02 00 00 00
 8.900000 2  100             Rx   d 8 94 23 85 48 02 00 00 00
 8.901000 2  200             Rx   d 4 EF 26 00 00
 8.920000 2  100             Rx   d 8 A3 23 85 47 02 00 00 00
 8.940000 2  100             Rx   d 8 11 23 85 46 02 00 00 00
 8.951000 2  200             Rx   d 4 C9 26 00 00
 8.960000 2  100             Rx   d 8 B0 22 85 46 02 00 00 00
 8.980000 2  100             Rx   d 8 52 22 85 45 02 00 00 00
 9.000000 2  100             Rx   d 8 88 22 85 45 02 00 00 00
 9.001000 2  200             Rx   d 4 A2 26 00 00
 9.002000 2  3A0             Rx   d 8 94 EA 27 E6 89 C6 6B 6B
 9.020000 2  100             Rx   d 8 01 22 85 44 02 00 00 00
 9.040000 2  100             Rx   d 8 DD 21 85 44 02 00 00 00
 9.051000 2  200             Rx   d 4 7A 26 00 00
 9.060000 2  100             Rx   d 8 53 22 85 43 02 00 00 00
 9.080000 2  100             Rx   d 8 B6 21 85 43 02 00 00 00
 9.100000 2  100             Rx   d 8 A6 21 85 42 02 00 00 00
 9.101000 2  200             Rx   d 4 52 26 00 00
 9.120000 2  100             Rx   d 8 B9 21 85 42 02 00 00 00
 9.140000 2  100             Rx   d 8 98 21 85 41 02 00 00 00
 9.151000 2  200             Rx   d 4 29 26 00 00
 9.160000 2  100             Rx   d 8 1B 21 85 40 02 00 00 00
 9.180000 2  100             Rx   d 8 CC 20 85 40 02 00 00 00
 9.200000 2  100             Rx   d 8 E0 20 85 3F 02 00 00 00
 9.201000 2  200             Rx   d 4 00 26 00 00
 9.220000 2  100             Rx   d 8 D8 20 85 3F 02 00 00 00
 9.240000 2  100             Rx   d 8 0B 21 85 3E 02 00 00 00
 9.251000 2  200             Rx   d 4 D6 25 00 00
 9.260000 2  100             Rx   d 8 6F 20 85 3E 02 00 00 00
 9.280000 2  100             Rx   d 8 0F 20 85 3D 02 00 00 00
 9.300000 2  100             Rx   d 8 A5 20 85 3D 02 00 00 00
 9.301000 2  200             Rx   d 4 AC 25 00 00
 9.320000 2  100             Rx   d 8 3D 20 85 3C 02 00 00 00
 9.340000 2  100             Rx   d 8 D2 1F 85 3C 02 00 00 00
 9.351000 2  200             Rx   d 4 81 25 00 00
 9.360000 2  100             Rx   d 8 F8 1F 85 3B 02 00 00 00
 9.380000 2  100             Rx   d 8 85 1F 85 3B 02 00 00 00
 9.400000 2  100             Rx   d 8 53 1F 85 3A 02 00 00 00
 9.401000 2  200             Rx   d 4 55 25 00 00
 9.420000 2  100             Rx   d 8 EE 1E 85 3A 02 00 00 00
 9.440000 2  100             Rx   d 8 F9 1E 85 39 02 00 00 00
 9.451000 2  200             Rx   d 4 29 25 00 00
 9.460000 2  100             Rx   d 8 CF 1E 85 39 02 00 00 00
 9.480000 2  100             Rx   d 8 AA 1E 85 38 02 00 00 00
 9.500000 2  100             Rx   d 8 91 1E 85 38 02 00 00 00
 9.501000 2  200             Rx   d 4 FC 24 00 00
 9.520000 2  100             Rx   d 8 EB 1E 85 37 02 00 00 00
 9.540000 2  100             Rx   d 8 10 1E 85 37 02 00 00 00
 9.551000 2  200             Rx   d 4 CF 24 00 00
 9.560000 2  100             Rx   d 8 BC 1D 85 36 02 00 00 00
 9.580000 2  100             Rx   d 8 43 1E 85 36 02 00 00 00
 9.600000 2  100             Rx   d 8 A6 1D 85 35 02 00 00 00
 9.601000 2  200             Rx   d 4 A1 24 00 00
 9.620000 2  100             Rx   d 8 51 1D 85 35 02 00 00 00
 9.640000 2  100             Rx   d 8 77 1D 85 34 02 00 00 00
 9.651000 2  200             Rx   d 4 72 24 00 00
 9.660000 2  100             Rx   d 8 C2 1D 85 34 02 00 00 00
 9.680000 2  100             Rx   d 8 DC 1C 85 33 02 00 00 00
 9.700000 2  100             Rx   d 8 80 1D 85 33 02 00 00 00
 9.701000 2  200             Rx   d 4 44 24 00 00
 9.720000 2  100             Rx   d 8 2F 1D 85 32 02 00 00 00
 9.740000 2  100             Rx   d 8 1F 1D 85 32 02 00 00 00
 9.751000 2  200             Rx   d 4 14 24 00 00
 9.760000 2  100             Rx   d 8 6E 1C 85 31 02 00 00 00
 9.780000 2  100             Rx   d 8 0F 1C 85 31 02 00 00 00
 9.800000 2  100             Rx   d 8 7A 1C 85 30 02 00 00 00
 9.801000 2  200             Rx   d 4 E4 23 00 00
 9.820000 2  100             Rx   d 8 4C 1C 85 30 02 00 00 00
 9.840000 2  100             Rx   d 8 AF 1B 85 2F 02 00 00 00
 9.851000 2  200             Rx   d 4 B4 23 00 00
 9.860000 2  100             Rx   d 8 4D 1C 85 2F 02 00 00 00
 9.880000 2  100             Rx   d 8 A5 1B 85 2E 02 00 00 00
 9.900000 2  100             Rx   d 8 61 1B 85 2E 02 00 00 00
 9.901000 2  200             Rx   d 4 83 23 00 00
 9.920000 2  100             Rx   d 8 A7 1B 85 2E 02 00 00 00
 9.940000 2  100             Rx   d 8 83 1B 85 2D 02 00 00 00
 9.951000 2  200             Rx   d 4 52 23 00 00
 9.960000 2  100             Rx   d 8 05 1B 85 2D 02 00 00 00
 9.980000 2  100             Rx   d 8 7E 1A 85 2C 02 00 00 00
 10.000000 2  100             Rx   d 8 07 1B 85 2C 02 00 00 00
 10.001000 2  200             Rx   d 4 20 23 00 00
 10.002000 2  3A0             Rx   d 8 CC 68 29 19 D2 E6 46 92
 10.020000 2  100             Rx   d 8 9D 1A 85 2B 02 00 00 00
 10.040000 2  100             Rx   d 8 DD 1A 85 2B 02 00 00 00
 10.051000 2  200             Rx   d 4 EE 22 00 00
 10.060000 2  100             Rx   d 8 5F 1A 85 2A 02 00 00 00
 10.080000 2  100             Rx   d 8 DC 19 85 2A 02 00 00 00
 10.100000 2  100             Rx   d 8 F0 19 85 29 02 00 00 00
 10.101000 2  200             Rx   d 4 BB 22 00 00
 10.120000 2  100             Rx   d 8 A9 19 85 29 02 00 00 00
 10.140000 2  100             Rx   d 8 7C 19 85 29 02 00 00 00
 10.151000 2  200             Rx   d 4 88 22 00 00
 10.160000 2  100             Rx   d 8 C9 19 85 28 02 00 00 00
 10.180000 2  100             Rx   d 8 8E 19 85 28 02 00 00 00
 10.200000 2  100             Rx   d 8 2C 19 85 27 02 00 00 00
 10.201000 2  200             Rx   d 4 54 22 00 00
 10.220000 2  100             Rx   d 8 DD 18 85 27 02 00 00 00
 10.240000 2  100             Rx   d 8 F1 18 85 26 02 00 00 00
 10.251000 2  200             Rx   d 4 20 22 00 00
 10.260000 2  100             Rx   d 8 F7 18 85 26 02 00 00 00
 10.280000 2  100             Rx   d 8 4D 18 85 26 02 00 00 00
 10.300000 2  100             Rx   d 8 A4 18 85 25 02 00 00 00
 10.301000 2  200             Rx   d 4 EB 21 00 00
 10.320000 2  100             Rx   d 8 F6 17 85 25 02 00 00 00
 10.340000 2  100             Rx   d 8 35 18 85 24 02 00 00 00
 10.351000 2  200             Rx   d 4 B6 21 00 00
 10.360000 2  100             Rx   d 8 5A 18 85 24 02 00 00 00
 10.380000 2  100             Rx   d 8 F5 17 85 24 02 00 00 00
 10.400000 2  100             Rx   d 8 B8 17 85 23 02 00 00 00
 10.401000 2  200             Rx   d 4 81 21 00 00
 10.420000 2  100             Rx   d 8 75 17 85 23 02 00 00 00
 10.440000 2  100             Rx   d 8 B6 17 85 22 02 00 00 00
 10.451000 2  200             Rx   d 4 4B 21 00 00
 10.460000 2  100             Rx   d 8 40 17 85 22 02 00 00 00
 10.480000 2  100             Rx   d 8 38 17 86 22 02 00 00 00
 10.500000 2  100             Rx   d 8 C9 16 86 21 02 00 00 00
 10.501000 2  200             Rx   d 4 15 21 00 00
 10.520000 2  100             Rx   d 8 93 16 86 21 02 00 00 00
 10.540000 2  100             Rx   d 8 C9 16 86 21 02 00 00 00
 10.551000 2  200             Rx   d 4 DF 20 00 00
 10.560000 2  100             Rx   d 8 6B 16 86 20 02 00 00 00
 10.580000 2  100             Rx   d 8 52 16 86 20 02 00 00 00
 10.600000 2  100             Rx   d 8 97 16 86 1F 02 00 00 00
 10.601000 2  200             Rx   d 4 A8 20 00 00
 10.620000 2  100             Rx   d 8 E0 15 86 1F 02 00 00 00
 10.640000 2  100             Rx   d 8 90 15 86 1F 02 00 00 00
 10.651000 2  200             Rx   d 4 70 20 00 00
 10.660000 2  100             Rx   d 8 37 16 86 1E 02 00 00 00
 10.680000 2  100             Rx   d 8 9E 15 86 1E 02 00 00 00
 10.700000 2  100             Rx   d 8 D0 15 86 1E 02 00 00 00
 10.701000 2  200             Rx   d 4 39 20 00 00
 10.720000 2  100             Rx   d 8 2B 15 86 1D 02 00 00 00
 10.740000 2  100             Rx   d 8 15 15 86 1D 02 00 00 00
 10.751000 2  200             Rx   d 4 01 20 00 00
 10.760000 2  100             Rx   d 8 65 15 86 1D 02 00 00 00
 10.780000 2  100             Rx   d 8 04 15 86 1C 02 00 00 00
 10.800000 2  100             Rx   d 8 F2 14 86 1C 02 00 00 00
 10.801000 2  200             Rx   d 4 C8 1F 00 00
 10.820000 2  100             Rx   d 8 9B 14 86 1C 02 00 00 00
 10.840000 2  100             Rx   d 8 C6 14 86 1B 02 00 00 00
 10.851000 2  200             Rx   d 4 90 1F 00 00
 10.860000 2  100             Rx   d 8 7C 14 86 1B 02 00 00 00
 10.880000 2  100             Rx   d 8 98 14 86 1B 02 00 00 00
 10.900000 2  100             Rx   d 8 82 14 86 1A 02 00 00 00
 10.901000 2  200             Rx   d 4 57 1F 00 00
 10.920000 2  100             Rx   d 8 AA 13 86 1A 02 00 00 00
 10.940000 2  100             Rx   d 8 47 14 86 1A 02 00 00 00
 10.951000 2  200             Rx   d 4 1D 1F 00 00
 10.960000 2  100             Rx   d 8 AA 13 86 19 02 00 00 00
 10.980000 2  100             Rx   d 8 C6 13 86 19 02 00 00 00
 11.000000 2  100             Rx   d 8 6F 13 86 19 02 00 00 00
 11.001000 2  200             Rx   d 4 E4 1E 00 00
 11.002000 2  3A0             Rx   d 8 9F 0B 41 10 D9 F2 FA 00
 11.020000 2  100             Rx   d 8 F7 12 86 18 02 00 00 00
 11.040000 2  100             Rx   d 8 A2 13 86 18 02 00 00 00
 11.051000 2  200             Rx   d 4 AA 1E 00 00
 11.060000 2  100             Rx   d 8 7F 13 86 18 02 00 00 00
 11.080000 2  100             Rx   d 8 FD 12 86 18 02 00 00 00
 11.100000 2  100             Rx   d 8 CD 12 86 17 02 00 00 00
 11.101000 2  200             Rx   d 4 70 1E 00 00
 11.120000 2  100             Rx   d 8 A6 12 86 17 02 00 00 00
 11.140000 2  100             Rx   d 8 D5 12 86 17 02 00 00 00
 11.151000 2  200             Rx   d 4 35 1E 00 00
 11.160000 2  100             Rx   d 8 2D 12 86 16 02 00 00 00
 11.180000 2  100             Rx   d 8 FA 11 86 16 02 00 00 00
 11.200000 2  100             Rx   d 8 9E 12 86 16 02 00 00 00
 11.201000 2  200             Rx   d 4 FA 1D 00 00
 11.220000 2  100             Rx   d 8 AE 11 86 16 02 00 00 00
 11.240000 2  100             Rx   d 8 39 12 86 15 02 00 00 00
 11.251000 2  200             Rx   d 4 BF 1D 00 00
 11.260000 2  100             Rx   d 8 FA 11 86 15 02 00 00 00
 11.280000 2  100             Rx   d 8 FC 11 86 15 02 00 00 00
 11.300000 2  100             Rx   d 8 E7 11 86 15 02 00 00 00
 11.301000 2  200             Rx   d 4 84 1D 00 00
 11.320000 2  100             Rx   d 8 05 11 86 14 02 00 00 00
 11.340000 2  100             Rx   d 8 8A 11 86 14 02 00 00 00
 11.351000 2  200             Rx   d 4 49 1D 00 00
 11.360000 2  100             Rx   d 8 B0 10 86 14 02 00 00 00
 11.380000 2  100             Rx   d 8 AE 10 86 14 02 00 00 00
 11.400000 2  100             Rx   d 8 F9 10 86 13 02 00 00 00
 11.401000 2  200             Rx   d 4 0D 1D 00 00
 11.420000 2  100             Rx   d 8 5A 10 86 13 02 00 00 00
 11.440000 2  100             Rx   d 8 DD 10 86 13 02 00 00 00
 11.451000 2  200             Rx   d 4 D1 1C 00 00
 11.460000 2  100             Rx   d 8 F9 10 86 13 02 00 00 00
 11.480000 2  100             Rx   d 8 89 10 86 12 02 00 00 00
 11.500000 2  100             Rx   d 8 53 10 86 12 02 00 00 00
 11.501000 2  200             Rx   d 4 95 1C 00 00
 11.520000 2  100             Rx   d 8 1E 10 86 12 02 00 00 00
 11.540000 2  100             Rx   d 8 4E 10 86 12 02 00 00 00
 11.551000 2  200             Rx   d 4 58 1C 00 00
 11.560000 2  100             Rx   d 8 90 0F 86 12 02 00 00 00
 11.580000 2  100             Rx   d 8 A2 0F 86 11 02 00 00 00
 11.600000 2  100             Rx   d 8 1F 10 86 11 02 00 00 00
 11.601000 2  200             Rx   d 4 1C 1C 00 00
 11.620000 2  100             Rx   d 8 4D 0F 86 11 02 00 00 00
 11.640000 2  100             Rx   d 8 3F 0F 86 11 02 00 00 00
 11.651000 2  200             Rx   d 4 DF 1B 00 00
 11.660000 2  100             Rx   d 8 A1 0F 86 11 02 00 00 00
 11.680000 2  100             Rx   d 8 C6 0E 86 10 02 00 00 00
 11.700000 2  100             Rx   d 8 2A 0F 86 10 02 00 00 00
 11.701000 2  200             Rx   d 4 A2 1B 00 00
 11.720000 2  100             Rx   d 8 7B 0F 86 10 02 00 00 00
 11.740000 2  100             Rx   d 8 B2 0E 86 10 02 00 00 00
 11.751000 2  200             Rx   d 4 65 1B 00 00
 11.760000 2  100             Rx   d 8 9F 0E 86 10 02 00 00 00
 11.780000 2  100             Rx   d 8 00 0F 86 10 02 00 00 00
 11.800000 2  100             Rx   d 8 54 0E 86 0F 02 00 00 00
 11.801000 2  200             Rx   d 4 28 1B 00 00
 11.820000 2  100             Rx   d 8 7C 0E 86 0F 02 00 00 00
 11.840000 2  100             Rx   d 8 65 0E 86 0F 02 00 00 00
 11.851000 2  200             Rx   d 4 EA 1A 00 00
 11.860000 2  100             Rx   d 8 CE 0D 86 0F 02 00 00 00
 11.880000 2  100             Rx   d 8 0E 0E 86 0F 02 00 00 00
 11.900000 2  100             Rx   d 8 2C 0E 86 0F 02 00 00 00
 11.901000 2  200             Rx   d 4 AD 1A 00 00
 11.920000 2  100             Rx   d 8 82 0D 86 0E 02 00 00 00
 11.940000 2  100             Rx   d 8 89 0D 86 0E 02 00 00 00
 11.951000 2  200             Rx   d 4 6F 1A 00 00
 11.960000 2  100             Rx   d 8 14 0E 86 0E 02 00 00 00
 11.980000 2  100             Rx   d 8 C0 0D 86 0E 02 00 00 00
 12.000000 2  100             Rx   d 8 1E 0D 86 0E 03 00 00 00
 12.001000 2  200             Rx   d 4 31 1A 00 00
 12.002000 2  3A0             Rx   d 8 74 D9 BD 74 FC 11 AD D7
 12.020000 2  100             Rx   d 8 48 0D 86 0E 03 00 00 00
 12.040000 2  100             Rx   d 8 36 0D 86 0E 03 00 00 00
 12.051000 2  200             Rx   d 4 F3 19 00 00
 12.060000 2  100             Rx   d 8 BF 0C 86 0E 03 00 00 00
 12.080000 2  100             Rx   d 8 EA 0C 86 0E 03 00 00 00
 12.100000 2  100             Rx   d 8 55 0D 86 0D 03 00 00 00
 12.101000 2  200             Rx   d 4 B5 19 00 00
 12.120000 2  100             Rx   d 8 82 0C 86 0D 03 00 00 00
 12.140000 2  100             Rx   d 8 D0 0C 86 0D 03 00 00 00
 12.151000 2  200             Rx   d 4 77 19 00 00
 12.160000 2  100             Rx   d 8 70 0C 86 0D 03 00 00 00
 12.180000 2  100             Rx   d 8 DF 0C 86 0D 03 00 00 00
 12.200000 2  100             Rx   d 8 3E 0C 86 0D 03 00 00 00
 12.201000 2  200             Rx   d 4 39 19 00 00
 12.220000 2  100             Rx   d 8 67 0C 86 0D 03 00 00 00
 12.240000 2  100             Rx   d 8 1F 0C 86 0D 03 00 00 00
 12.251000 2  200             Rx   d 4 FB 18 00 00
 12.260000 2  100             Rx   d 8 9E 0C 86 0D 03 00 00 00
 12.280000 2  100             Rx   d 8 CB 0B 86 0D 03 00 00 00
 12.300000 2  100             Rx   d 8 30 0C 86 0D 03 00 00 00
 12.301000 2  200             Rx   d 4 BC 18 00 00
 12.320000 2  100             Rx   d 8 15 0C 86 0C 03 00 00 00
 12.340000 2  100             Rx   d 8 43 0C 86 0C 03 00 00 00
 12.351000 2  200             Rx   d 4 7E 18 00 00
 12.360000 2  100             Rx   d 8 CA 0B 86 0C 03 00 00 00
 12.380000 2  100             Rx   d 8 1A 0C 86 0C 03 00 00 00
 12.400000 2  100             Rx   d 8 37 0B 86 0C 03 00 00 00
 12.401000 2  200             Rx   d 4 3F 18 00 00
 12.420000 2  100             Rx   d 8 A3 0B 86 0C 03 00 00 00
 12.440000 2  100             Rx   d 8 DC 0B 86 0C 03 00 00 00
 12.451000 2  200             Rx   d 4 01 18 00 00
 12.460000 2  100             Rx   d 8 F6 0A 86 0C 03 00 00 00
 12.480000 2  100             Rx   d 8 DA 0A 86 0C 03 00 00 00
 12.500000 2  100             Rx   d 8 4E 0B 86 0C 03 00 00 00
 12.501000 2  200             Rx   d 4 C2 17 00 00
 12.520000 2  100             Rx   d 8 0E 0B 86 0C 03 00 00 00
 12.540000 2  100             Rx   d 8 40 0B 86 0C 03 00 00 00
 12.551000 2  200             Rx   d 4 84 17 00 00
 12.560000 2  100             Rx   d 8 AE 0A 86 0C 03 00 00 00
 12.580000 2  100             Rx   d 8 DA 0A 86 0C 03 00 00 00
 12.600000 2  100             Rx   d 8 05 0B 86 0C 03 00 00 00
 12.601000 2  200             Rx   d 4 45 17 00 00
 12.620000 2  100             Rx   d 8 92 0A 86 0C 03 00 00 00
 12.640000 2  100             Rx   d 8 4E 0A 86 0C 03 00 00 00
 12.651000 2  200             Rx   d 4 07 17 00 00
 12.660000 2  100             Rx   d 8 33 0A 86 0C 03 00 00 00
 12.680000 2  100             Rx   d 8 35 0A 86 0C 03 00 00 00
 12.700000 2  100             Rx   d 8 29 0A 86 0C 03 00 00 00
 12.701000 2  200             Rx   d 4 C8 16 00 00
 12.720000 2  100             Rx   d 8 85 0A 86 0C 03 00 00 00
 12.740000 2  100             Rx   d 8 54 0A 86 0C 03 00 00 00
 12.751000 2  200             Rx   d 4 8A 16 00 00
 12.760000 2  100             Rx   d 8 35 0A 86 0C 03 00 00 00
 12.780000 2  100             Rx   d 8 FE 09 86 0C 03 00 00 00
 12.800000 2  100             Rx   d 8 50 0A 86 0C 03 00 00 00
 12.801000 2  200             Rx   d 4 4C 16 00 00
 12.820000 2  100             Rx   d 8 5A 0A 86 0C 03 00 00 00
 12.840000 2  100             Rx   d 8 6C 0A 86 0C 03 00 00 00
 12.851000 2  200             Rx   d 4 0D 16 00 00
 12.860000 2  100             Rx   d 8 D9 09 86 0C 03 00 00 00
 12.880000 2  100             Rx   d 8 79 09 86 0C 03 00 00 00
 12.900000 2  100             Rx   d 8 61 09 86 0C 03 00 00 00
 12.901000 2  200             Rx   d 4 CF 15 00 00
 12.920000 2  100             Rx   d 8 52 09 86 0C 03 00 00 00
 12.940000 2  100             Rx   d 8 94 09 86 0C 03 00 00 00
 12.951000 2  200             Rx   d 4 91 15 00 00
 12.960000 2  100             Rx   d 8 F4 09 86 0D 03 00 00 00
 12.980000 2  100             Rx   d 8 97 09 86 0D 03 00 00 00
 13.000000 2  100             Rx   d 8 B8 09 86 0D 03 00 00 00
 13.001000 2  200             Rx   d 4 53 15 00 00
 13.002000 2  3A0             Rx   d 8 C2 B6 9E DD 2C 19 F2 64
 13.020000 2  100             Rx   d 8 4C 09 86 0D 03 00 00 00
 13.040000 2  100             Rx   d 8 C1 09 86 0D 03 00 00 00
 13.051000 2  200             Rx   d 4 14 15 00 00
 13.060000 2  100             Rx   d 8 04 09 86 0D 03 00 00 00
 13.080000 2  100             Rx   d 8 20 09 86 0D 03 00 00 00
 13.100000 2  100             Rx   d 8 92 09 86 0D 03 00 00 00
 13.101000 2  200             Rx   d 4 D6 14 00 00
 13.120000 2  100             Rx   d 8 B4 08 86 0D 03 00 00 00
 13.140000 2  100             Rx   d 8 02 09 86 0D 03 00 00 00
 13.151000 2  200             Rx   d 4 99 14 00 00
 13.160000 2  100             Rx   d 8 56 09 86 0D 03 00 00 00
 13.180000 2  100             Rx   d 8 3E 09 86 0D 03 00 00 00
 13.200000 2  100             Rx   d 8 84 08 86 0E 03 00 00 00
 13.201000 2  200             Rx   d 4 5B 14 00 00
 13.220000 2  100             Rx   d 8 76 08 86 0E 03 00 00 00
 13.240000 2  100             Rx   d 8 71 08 86 0E 03 00 00 00
 13.251000 2  200             Rx   d 4 1D 14 00 00
 13.260000 2  100             Rx   d 8 33 09 86 0E 03 00 00 00
 13.280000 2  100             Rx   d 8 88 08 86 0E 03 00 00 00
 13.300000 2  100             Rx   d 8 F3 08 86 0E 03 00 00 00
 13.301000 2  200             Rx   d 4 E0 13 00 00
 13.320000 2  100             Rx   d 8 0C 09 86 0E 03 00 00 00
 13.340000 2  100             Rx   d 8 7B 08 86 0E 03 00 00 00
 13.351000 2  200             Rx   d 4 A2 13 00 00
 13.360000 2  100             Rx   d 8 61 08 86 0F 03 00 00 00
 13.380000 2  100             Rx   d 8 FB 08 86 0F 03 00 00 00
 13.400000 2  100             Rx   d 8 A0 08 86 0F 03 00 00 00
 13.401000 2  200             Rx   d 4 65 13 00 00
 13.420000 2  100             Rx   d 8 41 08 86 0F 03 00 00 00
 13.440000 2  100             Rx   d 8 A5 08 86 0F 03 00 00 00
 13.451000 2  200             Rx   d 4 28 13 00 00
 13.460000 2  100             Rx   d 8 3C 08 86 0F 03 00 00 00
 13.480000 2  100             Rx   d 8 29 08 86 0F 03 00 00 00
 13.500000 2  100             Rx   d 8 DF 07 86 10 03 00 00 00
 13.501000 2  200             Rx   d 4 EB 12 00 00
 13.520000 2  100             Rx   d 8 8B 08 87 10 03 00 00 00
 13.540000 2  100             Rx   d 8 AA 08 87 10 03 00 00 00
 13.551000 2  200             Rx   d 4 AE 12 00 00
 13.560000 2  100             Rx   d 8 5E 08 87 10 03 00 00 00
 13.580000 2  100             Rx   d 8 A1 08 87 10 03 00 00 00
 13.600000 2  100             Rx   d 8 BD 07 87 10 03 00 00 00
 13.601000 2  200             Rx   d 4 72 12 00 00
 13.620000 2  100             Rx   d 8 E9 07 87 11 03 00 00 00
 13.640000 2  100             Rx   d 8 1C 08 87 11 03 00 00 00
 13.651000 2  200             Rx   d 4 35 12 00 00
 13.660000 2  100             Rx   d 8 89 08 87 11 03 00 00 00
 13.680000 2  100             Rx   d 8 82 08 87 11 03 00 00 00
 13.700000 2  100             Rx   d 8 F4 07 87 11 03 00 00 00
 13.701000 2  200             Rx   d 4 F9 11 00 00
 13.720000 2  100             Rx   d 8 CE 07 87 12 03 00 00 00
 13.740000 2  100             Rx   d 8 F3 07 87 12 03 00 00 00
 13.751000 2  200             Rx   d 4 BD 11 00 00
 13.760000 2  100             Rx   d 8 FD 07 87 12 03 00 00 00
 13.780000 2  100             Rx   d 8 61 08 87 12 03 00 00 00
 13.800000 2  100             Rx   d 8 A9 07 87 12 03 00 00 00
 13.801000 2  200             Rx   d 4 82 11 00 00
 13.820000 2  100             Rx   d 8 3A 08 87 13 03 00 00 00
 13.840000 2  100             Rx   d 8 26 08 87 13 03 00 00 00
 13.851000 2  200             Rx   d 4 46 11 00 00
 13.860000 2  100             Rx   d 8 37 08 87 13 03 00 00 00
 13.880000 2  100             Rx   d 8 27 08 87 13 03 00 00 00
 13.900000 2  100             Rx   d 8 FC 07 87 14 03 00 00 00
 13.901000 2  200             Rx   d 4 0B 11 00 00
 13.920000 2  100             Rx   d 8 B6 07 87 14 03 00 00 00
 13.940000 2  100             Rx   d 8 B1 07 87 14 03 00 00 00
 13.951000 2  200             Rx   d 4 D0 10 00 00
 13.960000 2  100             Rx   d 8 B9 07 87 14 03 00 00 00
 13.980000 2  100             Rx   d 8 1B 08 87 15 03 00 00 00
 14.000000 2  100             Rx   d 8 71 07 87 15 03 00 00 00
 14.001000 2  200             Rx   d 4 96 10 00 00
 14.002000 2  3A0             Rx   d 8 65 C8 51 7E D0 21 11 F6
 14.020000 2  100             Rx   d 8 E1 07 87 15 03 00 00 00
 14.040000 2  100             Rx   d 8 A9 07 87 15 03 00 00 00
 14.051000 2  200             Rx   d 4 5B 10 00 00
 14.060000 2  100             Rx   d 8 45 08 87 16 03 00 00 00
 14.080000 2  100             Rx   d 8 2D 08 87 16 03 00 00 00
 14.100000 2  100             Rx   d 8 45 08 87 16 03 00 00 00
 14.101000 2  200             Rx   d 4 21 10 00 00
 14.120000 2  100             Rx   d 8 97 07 87 16 03 00 00 00
 14.140000 2  100             Rx   d 8 6C 07 87 17 03 00 00 00
 14.151000 2  200             Rx   d 4 E7 0F 00 00
 14.160000 2  100             Rx   d 8 6F 07 87 17 03 00 00 00
 14.180000 2  100             Rx   d 8 D0 07 87 17 03 00 00 00
 14.200000 2  100             Rx   d 8 03 08 87 18 03 00 00 00
 14.201000 2  200             Rx   d 4 AE 0F 00 00
 14.220000 2  100             Rx   d 8 C5 07 87 18 03 00 00 00
 14.240000 2  100             Rx   d 8 93 07 87 18 03 00 00 00
 14.251000 2  200             Rx   d 4 75 0F 00 00
 14.260000 2  100             Rx   d 8 C1 07 87 18 03 00 00 00
 14.280000 2  100             Rx   d 8 F3 07 87 19 03 00 00 00
 14.300000 2  100             Rx   d 8 02 08 87 19 03 00 00 00
 14.301000 2  200             Rx   d 4 3C 0F 00 00
 14.320000 2  100             Rx   d 8 16 08 87 19 03 00 00 00
 14.340000 2  100             Rx   d 8 30 08 87 1A 03 00 00 00
 14.351000 2  200             Rx   d 4 03 0F 00 00
 14.360000 2  100             Rx   d 8 08 08 87 1A 03 00 00 00
 14.380000 2  100             Rx   d 8 88 07 87 1A 03 00 00 00
 14.400000 2  100             Rx   d 8 38 08 87 1B 03 00 00 00
 14.401000 2  200             Rx   d 4 CB 0E 00 00
 14.420000 2  100             Rx   d 8 B9 07 87 1B 03 00 00 00
 14.440000 2  100             Rx   d 8 FE 07 87 1B 03 00 00 00
 14.451000 2  200             Rx   d 4 93 0E 00 00
 14.460000 2  100             Rx   d 8 D4 07 87 1C 03 00 00 00
 14.480000 2  100             Rx   d 8 30 08 87 1C 03 00 00 00
 14.500000 2  100             Rx   d 8 B3 07 87 1C 03 00 00 00
 14.501000 2  200             Rx   d 4 5C 0E 00 00
 14.520000 2  100             Rx   d 8 C4 07 87 1D 03 00 00 00
 14.540000 2  100             Rx   d 8 C8 07 87 1D 03 00 00 00
 14.551000 2  200             Rx   d 4 24 0E 00 00
 14.560000 2  100             Rx   d 8 B8 07 87 1D 03 00 00 00
 14.580000 2  100             Rx   d 8 6D 08 87 1E 03 00 00 00
 14.600000 2  100             Rx   d 8 2A 08 87 1E 03 00 00 00
 14.601000 2  200             Rx   d 4 EE 0D 00 00
 14.620000 2  100             Rx   d 8 F3 07 87 1E 03 00 00 00
 14.640000 2  100             Rx   d 8 0B 08 87 1F 03 00 00 00
 14.651000 2  200             Rx   d 4 B7 0D 00 00
 14.660000 2  100             Rx   d 8 A1 08 87 1F 03 00 00 00
 14.680000 2  100             Rx   d 8 33 08 87 20 03 00 00 00
 14.700000 2  100             Rx   d 8 F8 07 87 20 03 00 00 00
 14.701000 2  200             Rx   d 4 81 0D 00 00
 14.720000 2  100             Rx   d 8 8A 08 87 20 03 00 00 00
 14.740000 2  100             Rx   d 8 6D 08 87 21 03 00 00 00
 14.751000 2  200             Rx   d 4 4C 0D 00 00
 14.760000 2  100             Rx   d 8 C6 08 87 21 03 00 00 00
 14.780000 2  100             Rx   d 8 F9 07 87 21 03 00 00 00
 14.800000 2  100             Rx   d 8 5B 08 87 22 03 00 00 00
 14.801000 2  200             Rx   d 4 16 0D 00 00
 14.820000 2  100             Rx   d 8 B7 08 87 22 03 00 00 00
 14.840000 2  100             Rx   d 8 C5 08 87 23 03 00 00 00
 14.851000 2  200             Rx   d 4 E2 0C 00 00
 14.860000 2  100             Rx   d 8 E0 08 87 23 03 00 00 00
 14.880000 2  100             Rx   d 8 18 08 87 23 03 00 00 00
 14.900000 2  100             Rx   d 8 5F 08 87 24 03 00 00 00
 14.901000 2  200             Rx   d 4 AD 0C 00 00
 14.920000 2  100             Rx   d 8 3F 08 87 24 03 00 00 00
 14.940000 2  100             Rx   d 8 5B 08 87 25 03 00 00 00
 14.951000 2  200             Rx   d 4 79 0C 00 00
 14.960000 2  100             Rx   d 8 21 09 87 25 03 00 00 00
 14.980000 2  100             Rx   d 8 CF 08 87 25 03 00 00 00
 15.000000 2  100             Rx   d 8 2D 09 87 26 03 00 00 00
 15.001000 2  200             Rx   d 4 46 0C 00 00
 15.002000 2  3A0             Rx   d 8 BE 5B E5 85 03 36 B3 6F
 15.020000 2  100             Rx   d 8 62 08 87 26 03 00 00 00
 15.040000 2  100             Rx   d 8 B7 08 87 27 03 00 00 00
 15.051000 2  200             Rx   d 4 13 0C 00 00
 15.060000 2  100             Rx   d 8 7C 08 87 27 03 00 00 00
 15.080000 2  100             Rx   d 8 6D 09 87 27 03 00 00 00
 15.100000 2  100             Rx   d 8 93 08 87 28 03 00 00 00
 15.101000 2  200             Rx   d 4 E0 0B 00 00
 15.120000 2  100             Rx   d 8 46 09 87 28 03 00 00 00
 15.140000 2  100             Rx   d 8 7F 09 87 29 03 00 00 00
 15.151000 2  200             Rx   d 4 AE 0B 00 00
 15.160000 2  100             Rx   d 8 74 09 87 29 03 00 00 00
 15.180000 2  100             Rx   d 8 83 09 87 2A 03 00 00 00
 15.200000 2  100             Rx   d 8 2E 09 87 2A 03 00 00 00
 15.201000 2  200             Rx   d 4 7C 0B 00 00
 15.220000 2  100             Rx   d 8 33 09 87 2A 03 00 00 00
 15.240000 2  100             Rx   d 8 7D 09 87 2B 03 00 00 00
 15.251000 2  200             Rx   d 4 4B 0B 00 00
 15.260000 2  100             Rx   d 8 0A 09 87 2B 03 00 00 00
 15.280000 2  100             Rx   d 8 0D 09 87 2C 03 00 00 00
 15.300000 2  100             Rx   d 8 8C 09 87 2C 03 00 00 00
 15.301000 2  200             Rx   d 4 1A 0B 00 00
 15.320000 2  100             Rx   d 8 98 09 87 2D 03 00 00 00
 15.340000 2  100             Rx   d 8 95 09 87 2D 03 00 00 00
 15.351000 2  200             Rx   d 4 EA 0A 00 00
 15.360000 2  100             Rx   d 8 02 0A 87 2E 03 00 00 00
 15.380000 2  100             Rx   d 8 F2 09 87 2E 03 00 00 00
 15.400000 2  100             Rx   d 8 88 09 87 2F 03 00 00 00
 15.401000 2  200             Rx   d 4 BA 0A 00 00
 15.420000 2  100             Rx   d 8 F4 09 87 2F 03 00 00 00
 15.440000 2  100             Rx   d 8 21 0A 87 2F 03 00 00 00
 15.451000 2  200             Rx   d 4 8B 0A 00 00
 15.460000 2  100             Rx   d 8 F5 09 87 30 03 00 00 00
 15.480000 2  100             Rx   d 8 E8 09 87 30 03 00 00 00
 15.500000 2  100             Rx   d 8 A5 0A 87 31 03 00 00 00
 15.501000 2  200             Rx   d 4 5C 0A 00 00
 15.520000 2  100             Rx   d 8 6A 0A 87 31 03 00 00 00
 15.540000 2  100             Rx   d 8 40 0A 87 32 03 00 00 00
 15.551000 2  200             Rx   d 4 2E 0A 00 00
 15.560000 2  100             Rx   d 8 FA 09 87 32 03 00 00 00
 15.580000 2  100             Rx   d 8 B3 0A 87 33 03 00 00 00
 15.600000 2  100             Rx   d 8 E7 0A 87 33 03 00 00 00
 15.601000 2  200             Rx   d 4 01 0A 00 00
 15.620000 2  100             Rx   d 8 89 0A 87 34 03 00 00 00
 15.640000 2  100             Rx   d 8 3D 0A 87 34 03 00 00 00
 15.651000 2  200             Rx   d 4 D4 09 00 00
 15.660000 2  100             Rx   d 8 04 0B 87 35 03 00 00 00
 15.680000 2  100             Rx   d 8 20 0B 87 35 03 00 00 00
 15.700000 2  100             Rx   d 8 0E 0B 87 36 03 00 00 00
 15.701000 2  200             Rx   d 4 A7 09 00 00
 15.720000 2  100             Rx   d 8 E5 0A 87 36 03 00 00 00
 15.740000 2  100             Rx   d 8 FD 0A 87 37 03 00 00 00
 15.751000 2  200             Rx   d 4 7B 09 00 00
 15.760000 2  100             Rx   d 8 92 0B 87 37 03 00 00 00
 15.780000 2  100             Rx   d 8 2D 0B 87 38 03 00 00 00
 15.800000 2  100             Rx   d 8 FF 0A 87 38 03 00 00 00
 15.801000 2  200             Rx   d 4 50 09 00 00
 15.820000 2  100             Rx   d 8 0A 0B 87 39 03 00 00 00
 15.840000 2  100             Rx   d 8 1A 0B 87 39 03 00 00 00
 15.851000 2  200             Rx   d 4 25 09 00 00
 15.860000 2  100             Rx   d 8 A5 0B 87 3A 03 00 00 00
 15.880000 2  100             Rx   d 8 87 0B 87 3A 03 00 00 00
 15.900000 2  100             Rx   d 8 FF 0B 87 3B 03 00 00 00
 15.901000 2  200             Rx   d 4 FA 08 00 00
 15.920000 2  100             Rx   d 8 7B 0B 87 3B 03 00 00 00
 15.940000 2  100             Rx   d 8 7F 0B 87 3C 03 00 00 00
 15.951000 2  200             Rx   d 4 D1 08 00 00
 15.960000 2  100             Rx   d 8 AC 0B 87 3C 03 00 00 00
 15.980000 2  100             Rx   d 8 62 0C 87 3D 03 00 00 00
 16.000000 2  100             Rx   d 8 17 0C 87 3D 03 00 00 00
 16.001000 2  200             Rx   d 4 A7 08 00 00
 16.002000 2  3A0             Rx   d 8 BD 57 4A B2 91 52 57 22
 16.020000 2  100             Rx   d 8 E9 0B 87 3E 03 00 00 00
 16.040000 2  100             Rx   d 8 5C 0C 87 3F 03 00 00 00
 16.051000 2  200             Rx   d 4 7F 08 00 00
 16.060000 2  100             Rx   d 8 BF 0C 87 3F 03 00 00 00
 16.080000 2  100             Rx   d 8 FE 0C 87 40 03 00 00 00
 16.100000 2  100             Rx   d 8 5E 0C 87 40 03 00 00 00
 16.101000 2  200             Rx   d 4 57 08 00 00
 16.120000 2  100             Rx   d 8 65 0C 87 41 03 00 00 00
 16.140000 2  100             Rx   d 8 42 0D 87 41 03 00 00 00
 16.151000 2  200             Rx   d 4 30 08 00 00
 16.160000 2  100             Rx   d 8 63 0D 87 42 03 00 00 00
 16.180000 2  100             Rx   d 8 05 0D 87 42 03 00 00 00
 16.200000 2  100             Rx   d 8 B8 0C 87 43 03 00 00 00
 16.201000 2  200             Rx   d 4 09 08 00 00
 16.220000 2  100             Rx   d 8 A3 0D 87 43 03 00 00 00
 16.240000 2  100             Rx   d 8 3B 0D 87 44 03 00 00 00
 16.251000 2  200             Rx   d 4 E3 07 00 00
 16.260000 2  100             Rx   d 8 D1 0D 87 44 03 00 00 00
 16.280000 2  100             Rx   d 8 A7 0D 87 45 03 00 00 00
 16.300000 2  100             Rx   d 8 F2 0D 87 46 03 00 00 00
 16.301000 2  200             Rx   d 4 BD 07 00 00
 16.320000 2  100             Rx   d 8 6D 0D 87 46 03 00 00 00
 16.340000 2  100             Rx   d 8 1E 0E 87 47 03 00 00 00
 16.351000 2  200             Rx   d 4 98 07 00 00
 16.360000 2  100             Rx   d 8 B2 0D 87 47 03 00 00 00
 16.380000 2  100             Rx   d 8 F9 0D 87 48 03 00 00 00
 16.400000 2  100             Rx   d 8 7E 0E 87 48 03 00 00 00
 16.401000 2  200             Rx   d 4 74 07 00 00
 16.420000 2  100             Rx   d 8 95 0E 87 49 03 00 00 00
 16.440000 2  100             Rx   d 8 16 0E 87 49 03 00 00 00
 16.451000 2  200             Rx   d 4 51 07 00 00
 16.460000 2  100             Rx   d 8 3A 0E 87 4A 03 00 00 00
 16.480000 2  100             Rx   d 8 82 0E 87 4A 03 00 00 00
 16.500000 2  100             Rx   d 8 BB 0E 87 4B 03 00 00 00
 16.501000 2  200             Rx   d 4 2E 07 00 00
 16.520000 2  100             Rx   d 8 B7 0E 87 4C 03 00 00 00
 16.540000 2  100             Rx   d 8 95 0E 87 4C 03 00 00 00
 16.551000 2  200             Rx   d 4 0B 07 00 00
 16.560000 2  100             Rx   d 8 CF 0E 87 4D 03 00 00 00
 16.580000 2  100             Rx   d 8 5F 0F 87 4D 03 00 00 00
 16.600000 2  100             Rx   d 8 A6 0F 87 4E 03 00 00 00
 16.601000 2  200             Rx   d 4 EA 06 00 00
 16.620000 2  100             Rx   d 8 F6 0E 87 4E 03 00 00 00
 16.640000 2  100             Rx   d 8 90 0F 87 4F 03 00 00 00
 16.651000 2  200             Rx   d 4 C9 06 00 00
 16.660000 2  100             Rx   d 8 DD 0F 87 50 03 00 00 00
 16.680000 2  100             Rx   d 8 4E 0F 87 50 03 00 00 00
 16.700000 2  100             Rx   d 8 2C 10 87 51 03 00 00 00
 16.701000 2  200             Rx   d 4 A8 06 00 00
 16.720000 2  100             Rx   d 8 9D 0F 87 51 03 00 00 00
 16.740000 2  100             Rx   d 8 2F 10 87 52 03 00 00 00
 16.751000 2  200             Rx   d 4 89 06 00 00
 16.760000 2  100             Rx   d 8 42 10 87 52 03 00 00 00
 16.780000 2  100             Rx   d 8 73 10 87 53 03 00 00 00
 16.800000 2  100             Rx   d 8 45 10 87 54 03 00 00 00
 16.801000 2  200             Rx   d 4 6A 06 00 00
 16.820000 2  100             Rx   d 8 80 10 87 54 03 00 00 00
 16.840000 2  100             Rx   d 8 C6 10 87 55 03 00 00 00
 16.851000 2  200             Rx   d 4 4B 06 00 00
 16.860000 2  100             Rx   d 8 C0 10 87 55 03 00 00 00
 16.880000 2  100             Rx   d 8 17 11 87 56 03 00 00 00
 16.900000 2  100             Rx   d 8 04 11 87 56 03 00 00 00
 16.901000 2  200             Rx   d 4 2E 06 00 00
 16.920000 2  100             Rx   d 8 22 11 87 57 03 00 00 00
 16.940000 2  100             Rx   d 8 DF 10 87 58 03 00 00 00
 16.951000 2  200             Rx   d 4 11 06 00 00
 16.960000 2  100             Rx   d 8 8E 11 87 58 03 00 00 00
 16.980000 2  100             Rx   d 8 8F 11 88 59 03 00 00 00
 17.000000 2  100             Rx   d 8 73 11 88 59 03 00 00 00
 17.001000 2  200             Rx   d 4 F5 05 00 00
 17.002000 2  3A0             Rx   d 8 EA 5B F2 CC 36 22 41 B7
 17.020000 2  100             Rx   d 8 C2 11 88 5A 03 00 00 00
 17.040000 2  100             Rx   d 8 92 11 88 5A 03 00 00 00
 17.051000 2  200             Rx   d 4 D9 05 00 00
 17.060000 2  100             Rx   d 8 07 12 88 5B 03 00 00 00
 17.080000 2  100             Rx   d 8 39 12 88 5C 03 00 00 00
 17.100000 2  100             Rx   d 8 E9 11 88 5C 03 00 00 00
 17.101000 2  200             Rx   d 4 BE 05 00 00
 17.120000 2  100             Rx   d 8 9A 12 88 5D 03 00 00 00
 17.140000 2  100             Rx   d 8 36 12 88 5D 03 00 00 00
 17.151000 2  200             Rx   d 4 A4 05 00 00
 17.160000 2  100             Rx   d 8 F4 12 88 5E 03 00 00 00
 17.180000 2  100             Rx   d 8 21 13 88 5F 03 00 00 00
 17.200000 2  100             Rx   d 8 03 13 88 5F 03 00 00 00
 17.201000 2  200             Rx   d 4 8B 05 00 00
 17.220000 2  100             Rx   d 8 B7 12 88 60 03 00 00 00
 17.240000 2  100             Rx   d 8 46 13 88 60 03 00 00 00
 17.251000 2  200             Rx   d 4 72 05 00 00
 17.260000 2  100             Rx   d 8 4A 13 88 61 03 00 00 00
 17.280000 2  100             Rx   d 8 F6 13 88 61 03 00 00 00
 17.300000 2  100             Rx   d 8 55 13 88 62 03 00 00 00
 17.301000 2  200             Rx   d 4 5A 05 00 00
 17.320000 2  100             Rx   d 8 25 14 88 63 03 00 00 00
 17.340000 2  100             Rx   d 8 69 14 88 63 03 00 00 00
 17.351000 2  200             Rx   d 4 43 05 00 00
 17.360000 2  100             Rx   d 8 4D 14 88 64 03 00 00 00
 17.380000 2  100             Rx   d 8 84 14 88 64 03 00 00 00
 17.400000 2  100             Rx   d 8 12 14 88 65 03 00 00 00
 17.401000 2  200             Rx   d 4 2C 05 00 00
 17.420000 2  100             Rx   d 8 F3 14 88 66 03 00 00 00
 17.440000 2  100             Rx   d 8 A1 14 88 66 03 00 00 00
 17.451000 2  200             Rx   d 4 16 05 00 00
 17.460000 2  100             Rx   d 8 34 15 88 67 03 00 00 00
 17.480000 2  100             Rx   d 8 4E 15 88 67 03 00 00 00
 17.500000 2  100             Rx   d 8 BE 14 88 68 03 00 00 00
 17.501000 2  200             Rx   d 4 01 05 00 00
 17.520000 2  100             Rx   d 8 78 15 88 68 03 00 00 00
 17.540000 2  100             Rx   d 8 BE 15 88 69 03 00 00 00
 17.551000 2  200             Rx   d 4 ED 04 00 00
 17.560000 2  100             Rx   d 8 13 15 88 6A 03 00 00 00
 17.580000 2  100             Rx   d 8 7C 15 88 6A 03 00 00 00
 17.600000 2  100             Rx   d 8 02 16 88 6B 03 00 00 00
 17.601000 2  200             Rx   d 4 D9 04 00 00
 17.620000 2  100             Rx   d 8 97 15 88 6B 03 00 00 00
 17.640000 2  100             Rx   d 8 6D 16 88 6C 03 00 00 00
 17.651000 2  200             Rx   d 4 C7 04 00 00
 17.660000 2  100             Rx   d 8 FC 15 88 6D 03 00 00 00
 17.680000 2  100             Rx   d 8 A3 16 88 6D 03 00 00 00
 17.700000 2  100             Rx   d 8 27 16 88 6E 03 00 00 00
 17.701000 2  200             Rx   d 4 B5 04 00 00
 17.720000 2  100             Rx   d 8 A2 16 88 6E 03 00 00 00
 17.740000 2  100             Rx   d 8 2B 17 88 6F 03 00 00 00
 17.751000 2  200             Rx   d 4 A3 04 00 00
 17.760000 2  100             Rx   d 8 A6 16 88 6F 03 00 00 00
 17.780000 2  100             Rx   d 8 D9 16 88 70 03 00 00 00
 17.800000 2  100             Rx   d 8 38 17 88 71 03 00 00 00
 17.801000 2  200             Rx   d 4 93 04 00 00
 17.820000 2  100             Rx   d 8 31 17 88 71 03 00 00 00
 17.840000 2  100             Rx   d 8 13 17 88 72 03 00 00 00
 17.851000 2  200             Rx   d 4 83 04 00 00
 17.860000 2  100             Rx   d 8 5C 17 88 72 03 00 00 00
 17.880000 2  100             Rx   d 8 7D 17 88 73 03 00 00 00
 17.900000 2  100             Rx   d 8 5D 18 88 73 03 00 00 00
 17.901000 2  200             Rx   d 4 74 04 00 00
 17.920000 2  100             Rx   d 8 45 18 88 74 03 00 00 00
 17.940000 2  100             Rx   d 8 9F 18 88 75 03 00 00 00
 17.951000 2  200             Rx   d 4 65 04 00 00
 17.960000 2  100             Rx   d 8 17 18 88 75 03 00 00 00
 17.980000 2  100             Rx   d 8 D1 18 88 76 03 00 00 00
 18.000000 2  100             Rx   d 8 57 18 88 76 01 00 00 00
 18.001000 2  200             Rx   d 4 58 04 00 00
 18.002000 2  3A0             Rx   d 8 18 B8 E7 35 81 C9 BE 87
 18.020000 2  100             Rx   d 8 BC 18 88 77 01 00 00 00
 18.040000 2  100             Rx   d 8 E1 18 88 77 01 00 00 00
 18.051000 2  200             Rx   d 4 4B 04 00 00
 18.060000 2  100             Rx   d 8 D2 18 88 78 01 00 00 00
 18.080000 2  100             Rx   d 8 25 19 88 79 01 00 00 00
 18.100000 2  100             Rx   d 8 0F 19 88 79 01 00 00 00
 18.101000 2  200             Rx   d 4 3F 04 00 00
 18.120000 2  100             Rx   d 8 5A 19 88 7A 01 00 00 00
 18.140000 2  100             Rx   d 8 DD 19 88 7A 01 00 00 00
 18.151000 2  200             Rx   d 4 34 04 00 00
 18.160000 2  100             Rx   d 8 56 1A 88 7B 01 00 00 00
 18.180000 2  100             Rx   d 8 DF 19 88 7B 01 00 00 00
 18.200000 2  100             Rx   d 8 3A 1A 88 7C 01 00 00 00
 18.201000 2  200             Rx   d 4 29 04 00 00
 18.220000 2  100             Rx   d 8 30 1A 88 7D 01 00 00 00
 18.240000 2  100             Rx   d 8 F5 1A 88 7D 01 00 00 00
 18.251000 2  200             Rx   d 4 20 04 00 00
 18.260000 2  100             Rx   d 8 05 1B 88 7E 01 00 00 00
 18.280000 2  100             Rx   d 8 3A 1B 88 7E 01 00 00 00
 18.300000 2  100             Rx   d 8 59 1B 88 7F 01 00 00 00
 18.301000 2  200             Rx   d 4 17 04 00 00
 18.320000 2  100             Rx   d 8 5A 1B 88 7F 01 00 00 00
 18.340000 2  100             Rx   d 8 85 1B 88 80 01 00 00 00
 18.351000 2  200             Rx   d 4 0E 04 00 00
 18.360000 2  100             Rx   d 8 2E 1B 88 80 01 00 00 00
 18.380000 2  100             Rx   d 8 66 1B 88 81 01 00 00 00
 18.400000 2  100             Rx   d 8 DE 1B 88 82 01 00 00 00
 18.401000 2  200             Rx   d 4 07 04 00 00
 18.420000 2  100             Rx   d 8 D4 1B 88 82 01 00 00 00
 18.440000 2  100             Rx   d 8 EE 1B 88 83 01 00 00 00
 18.451000 2  200             Rx   d 4 00 04 00 00
 18.460000 2  100             Rx   d 8 CA 1B 88 83 01 00 00 00
 18.480000 2  100             Rx   d 8 5B 1C 88 84 01 00 00 00
 18.500000 2  100             Rx   d 8 A1 1C 88 84 01 00 00 00
 18.501000 2  200             Rx   d 4 FB 03 00 00
 18.520000 2  100             Rx   d 8 41 1C 88 85 01 00 00 00
 18.540000 2  100             Rx   d 8 6B 1C 88 85 01 00 00 00
 18.551000 2  200             Rx   d 4 F6 03 00 00
 18.560000 2  100             Rx   d 8 0D 1D 88 86 01 00 00 00
 18.580000 2  100             Rx   d 8 F6 1C 88 86 01 00 00 00
 18.600000 2  100             Rx   d 8 53 1D 88 87 01 00 00 00
 18.601000 2  200             Rx   d 4 F1 03 00 00
 18.620000 2  100             Rx   d 8 7D 1D 88 87 01 00 00 00
 18.640000 2  100             Rx   d 8 88 1D 88 88 01 00 00 00
 18.651000 2  200             Rx   d 4 EE 03 00 00
 18.660000 2  100             Rx   d 8 95 1D 88 89 01 00 00 00
 18.680000 2  100             Rx   d 8 95 1D 88 89 01 00 00 00
 18.700000 2  100             Rx   d 8 F4 1D 88 8A 01 00 00 00
 18.701000 2  200             Rx   d 4 EB 03 00 00
 18.720000 2  100             Rx   d 8 8B 1E 88 8A 01 00 00 00
 18.740000 2  100             Rx   d 8 13 1E 88 8B 01 00 00 00
 18.751000 2  200             Rx   d 4 E9 03 00 00
 18.760000 2  100             Rx   d 8 18 1E 88 8B 01 00 00 00
 18.780000 2  100             Rx   d 8 FD 1E 88 8C 01 00 00 00
 18.800000 2  100             Rx   d 8 0E 1F 88 8C 01 00 00 00
 18.801000 2  200             Rx   d 4 E8 03 00 00
 18.820000 2  100             Rx   d 8 F9 1E 88 8D 01 00 00 00
 18.840000 2  100             Rx   d 8 C4 1E 88 8D 01 00 00 00
 18.851000 2  200             Rx   d 4 E8 03 00 00
 18.860000 2  100             Rx   d 8 FF 1E 88 8E 01 00 00 00
 18.880000 2  100             Rx   d 8 A4 1F 88 8E 01 00 00 00
 18.900000 2  100             Rx   d 8 6D 1F 88 8F 01 00 00 00
 18.901000 2  200             Rx   d 4 E8 03 00 00
 18.920000 2  100             Rx   d 8 17 20 88 8F 01 00 00 00
 18.940000 2  100             Rx   d 8 64 20 88 90 01 00 00 00
 18.951000 2  200             Rx   d 4 E9 03 00 00
 18.960000 2  100             Rx   d 8 B2 1F 88 90 01 00 00 00
 18.980000 2  100             Rx   d 8 91 20 88 91 01 00 00 00
 19.000000 2  100             Rx   d 8 CB 20 88 91 01 00 00 00
 19.001000 2  200             Rx   d 4 EB 03 00 00
 19.002000 2  3A0             Rx   d 8 E3 FC 7F 54 00 16 1F 0C
 19.020000 2  100             Rx   d 8 7E 20 88 92 01 00 00 00
 19.040000 2  100             Rx   d 8 7D 20 88 92 01 00 00 00
 19.051000 2  200             Rx   d 4 EE 03 00 00
 19.060000 2  100             Rx   d 8 7A 20 88 93 01 00 00 00
 19.080000 2  100             Rx   d 8 4F 21 88 93 01 00 00 00
 19.100000 2  100             Rx   d 8 BF 20 88 94 01 00 00 00
 19.101000 2  200             Rx   d 4 F1 03 00 00
 19.120000 2  100             Rx   d 8 68 21 88 94 01 00 00 00
 19.140000 2  100             Rx   d 8 ED 21 88 95 01 00 00 00
 19.151000 2  200             Rx   d 4 F6 03 00 00
 19.160000 2  100             Rx   d 8 55 21 88 95 01 00 00 00
 19.180000 2  100             Rx   d 8 8B 21 88 96 01 00 00 00
 19.200000 2  100             Rx   d 8 15 22 88 96 01 00 00 00
 19.201000 2  200             Rx   d 4 FB 03 00 00
 19.220000 2  100             Rx   d 8 24 22 88 97 01 00 00 00
 19.240000 2  100             Rx   d 8 6C 22 88 97 01 00 00 00
 19.251000 2  200             Rx   d 4 01 04 00 00
 19.260000 2  100             Rx   d 8 BD 22 88 98 01 00 00 00
 19.280000 2  100             Rx   d 8 4B 22 88 98 01 00 00 00
 19.300000 2  100             Rx   d 8 93 22 88 98 01 00 00 00
 19.301000 2  200             Rx   d 4 07 04 00 00
 19.320000 2  100             Rx   d 8 B9 22 88 99 01 00 00 00
 19.340000 2  100             Rx   d 8 A4 22 88 99 01 00 00 00
 19.351000 2  200             Rx   d 4 0F 04 00 00
 19.360000 2  100             Rx   d 8 95 23 88 9A 01 00 00 00
 19.380000 2  100             Rx   d 8 A3 23 88 9A 01 00 00 00
 19.400000 2  100             Rx   d 8 BA 23 88 9B 01 00 00 00
 19.401000 2  200             Rx   d 4 17 04 00 00
 19.420000 2  100             Rx   d 8 37 23 88 9B 01 00 00 00
 19.440000 2  100             Rx   d 8 27 24 88 9C 01 00 00 00
 19.451000 2  200             Rx   d 4 20 04 00 00
 19.460000 2  100             Rx   d 8 37 24 88 9C 01 00 00 00
 19.480000 2  100             Rx   d 8 1B 24 88 9D 01 00 00 00
 19.500000 2  100             Rx   d 8 84 24 88 9D 01 00 00 00
 19.501000 2  200             Rx   d 4 29 04 00 00
 19.520000 2  100             Rx   d 8 66 24 88 9D 01 00 00 00
 19.540000 2  100             Rx   d 8 56 24 88 9E 01 00 00 00
 19.551000 2  200             Rx   d 4 34 04 00 00
 19.560000 2  100             Rx   d 8 60 24 88 9E 01 00 00 00
 19.580000 2  100             Rx   d 8 A6 24 88 9F 01 00 00 00
 19.600000 2  100             Rx   d 8 9E 24 88 9F 01 00 00 00
 19.601000 2  200             Rx   d 4 3F 04 00 00
 19.620000 2  100             Rx   d 8 0C 25 88 A0 01 00 00 00
 19.640000 2  100             Rx   d 8 96 25 88 A0 01 00 00 00
 19.651000 2  200             Rx   d 4 4B 04 00 00
 19.660000 2  100             Rx   d 8 B0 25 88 A0 01 00 00 00
 19.680000 2  100             Rx   d 8 FA 25 88 A1 01 00 00 00
 19.700000 2  100             Rx   d 8 01 26 88 A1 01 00 00 00
 19.701000 2  200             Rx   d 4 58 04 00 00
 19.720000 2  100             Rx   d 8 BC 25 88 A2 01 00 00 00
 19.740000 2  100             Rx   d 8 27 26 88 A2 01 00 00 00
 19.751000 2  200             Rx   d 4 66 04 00 00
 19.760000 2  100             Rx   d 8 31 26 88 A2 01 00 00 00
 19.780000 2  100             Rx   d 8 AC 26 88 A3 01 00 00 00
 19.800000 2  100             Rx   d 8 92 26 88 A3 01 00 00 00
 19.801000 2  200             Rx   d 4 74 04 00 00
 19.820000 2  100             Rx   d 8 7A 26 88 A4 01 00 00 00
 19.840000 2  100             Rx   d 8 FB 26 88 A4 01 00 00 00
 19.851000 2  200             Rx   d 4 83 04 00 00
 19.860000 2  100             Rx   d 8 6E 27 88 A4 01 00 00 00
 19.880000 2  100             Rx   d 8 E0 26 88 A5 01 00 00 00
 19.900000 2  100             Rx   d 8 A5 27 88 A5 01 00 00 00
 19.901000 2  200             Rx   d 4 93 04 00 00
 19.920000 2  100             Rx   d 8 FB 26 88 A6 01 00 00 00
 19.940000 2  100             Rx   d 8 5B 27 88 A6 01 00 00 00
 19.951000 2  200             Rx   d 4 A4 04 00 00
 19.960000 2  100             Rx   d 8 7B 27 88 A6 01 00 00 00
 19.980000 2  100             Rx   d 8 1A 28 88 A7 01 00 00 00
 20.000000 2  100             Rx   d 8 6F 28 88 A7 01 00 00 00
 20.001000 2  200             Rx   d 4 B5 04 00 00
 20.002000 2  3A0             Rx   d 8 A7 62 C7 A8 7A C2 F0 F1
 20.020000 2  100             Rx   d 8 7B 28 88 A8 01 00 00 00
 20.040000 2  100             Rx   d 8 7E 28 88 A8 01 00 00 00
 20.051000 2  200             Rx   d 4 C7 04 00 00
 20.060000 2  100             Rx   d 8 C9 28 88 A8 01 00 00 00
 20.080000 2  100             Rx   d 8 89 28 88 A9 01 00 00 00
 20.100000 2  100             Rx   d 8 F3 28 88 A9 01 00 00 00
 20.101000 2  200             Rx   d 4 DA 04 00 00
 20.120000 2  100             Rx   d 8 F2 28 88 A9 01 00 00 00
 20.140000 2  100             Rx   d 8 D7 28 88 AA 01 00 00 00
 20.151000 2  200             Rx   d 4 ED 04 00 00
 20.160000 2  100             Rx   d 8 E5 28 88 AA 01 00 00 00
 20.180000 2  100             Rx   d 8 6B 29 88 AA 01 00 00 00
 20.200000 2  100             Rx   d 8 0D 29 88 AB 01 00 00 00
 20.201000 2  200             Rx   d 4 02 05 00 00
 20.220000 2  100             Rx   d 8 F9 29 88 AB 01 00 00 00
 20.240000 2  100             Rx   d 8 65 29 88 AB 01 00 00 00
 20.251000 2  200             Rx   d 4 17 05 00 00
 20.260000 2  100             Rx   d 8 6C 29 88 AC 01 00 00 00
 20.280000 2  100             Rx   d 8 A3 29 88 AC 01 00 00 00
 20.300000 2  100             Rx   d 8 8C 2A 88 AC 01 00 00 00
 20.301000 2  200             Rx   d 4 2D 05 00 00
 20.320000 2  100             Rx   d 8 23 2A 88 AD 01 00 00 00
 20.340000 2  100             Rx   d 8 15 2A 88 AD 01 00 00 00
 20.351000 2  200             Rx   d 4 43 05 00 00
 20.360000 2  100             Rx   d 8 1D 2A 88 AD 01 00 00 00
 20.380000 2  100             Rx   d 8 43 2A 88 AE 01 00 00 00
 20.400000 2  100             Rx   d 8 02 2B 88 AE 01 00 00 00
 20.401000 2  200             Rx   d 4 5A 05 00 00
 20.420000 2  100             Rx   d 8 17 2B 88 AE 01 00 00 00
 20.440000 2  100             Rx   d 8 49 2B 88 AF 01 00 00 00
 20.451000 2  200             Rx   d 4 72 05 00 00
 20.460000 2  100             Rx   d 8 75 2B 88 AF 01 00 00 00
 20.480000 2  100             Rx   d 8 F6 2A 88 AF 01 00 00 00
 20.500000 2  100             Rx   d 8 96 2B 88 AF 01 00 00 00
 20.501000 2  200             Rx   d 4 8B 05 00 00
 20.520000 2  100             Rx   d 8 82 2B 88 B0 01 00 00 00
 20.540000 2  100             Rx   d 8 11 2C 88 B0 01 00 00 00
 20.551000 2  200             Rx   d 4 A5 05 00 00
 20.560000 2  100             Rx   d 8 33 2C 88 B0 01 00 00 00
 20.580000 2  100             Rx   d 8 66 2C 88 B1 01 00 00 00
 20.600000 2  100             Rx   d 8 C1 2B 88 B1 01 00 00 00
 20.601000 2  200             Rx   d 4 BF 05 00 00
 20.620000 2  100             Rx   d 8 A3 2C 88 B1 01 00 00 00
 20.640000 2  100             Rx   d 8 CF 2C 88 B1 01 00 00 00
 20.651000 2  200             Rx   d 4 DA 05 00 00
 20.660000 2  100             Rx   d 8 F7 2C 88 B2 01 00 00 00
 20.680000 2  100             Rx   d 8 4F 2C 88 B2 01 00 00 00
 20.700000 2  100             Rx   d 8 88 2C 88 B2 01 00 00 00
 20.701000 2  200             Rx   d 4 F5 05 00 00
 20.720000 2  100             Rx   d 8 92 2C 88 B2 01 00 00 00
 20.740000 2  100             Rx   d 8 9F 2C 88 B3 01 00 00 00
 20.751000 2  200             Rx   d 4 11 06 00 00
 20.760000 2  100             Rx   d 8 83 2D 88 B3 01 00 00 00
 20.780000 2  100             Rx   d 8 9A 2D 88 B3 01 00 00 00
 20.800000 2  100             Rx   d 8 90 2D 88 B3 01 00 00 00
 20.801000 2  200             Rx   d 4 2E 06 00 00
 20.820000 2  100             Rx   d 8 DD 2D 88 B4 01 00 00 00
 20.840000 2  100             Rx   d 8 CE 2D 88 B4 01 00 00 00
 20.851000 2  200             Rx   d 4 4C 06 00 00
 20.860000 2  100             Rx   d 8 9B 2D 88 B4 01 00 00 00
 20.880000 2  100             Rx   d 8 8D 2D 88 B4 01 00 00 00
 20.900000 2  100             Rx   d 8 AC 2D 88 B5 01 00 00 00
 20.901000 2  200             Rx   d 4 6A 06 00 00
 20.920000 2  100             Rx   d 8 69 2E 88 B5 01 00 00 00
 20.940000 2  100             Rx   d 8 03 2E 88 B5 01 00 00 00
 20.951000 2  200             Rx   d 4 89 06 00 00
 20.960000 2  100             Rx   d 8 3D 2E 88 B5 01 00 00 00
 20.980000 2  100             Rx   d 8 75 2E 88 B5 01 00 00 00
 21.000000 2  100             Rx   d 8 32 2E 88 B6 01 00 00 00
 21.001000 2  200             Rx   d 4 A9 06 00 00
 21.002000 2  3A0             Rx   d 8 83 90 18 BC A4 F3 93 0F
 21.020000 2  100             Rx   d 8 09 2F 88 B6 01 00 00 00
 21.040000 2  100             Rx   d 8 71 2E 88 B6 01 00 00 00
 21.051000 2  200             Rx   d 4 C9 06 00 00
 21.060000 2  100             Rx   d 8 04 2F 88 B6 01 00 00 00
 21.080000 2  100             Rx   d 8 BC 2E 88 B6 01 00 00 00
 21.100000 2  100             Rx   d 8 33 2F 88 B7 01 00 00 00
 21.101000 2  200             Rx   d 4 EA 06 00 00
 21.120000 2  100             Rx   d 8 EB 2E 88 B7 01 00 00 00
 21.140000 2  100             Rx   d 8 84 2F 88 B7 01 00 00 00
 21.151000 2  200             Rx   d 4 0C 07 00 00
 21.160000 2  100             Rx   d 8 C4 2F 88 B7 01 00 00 00
 21.180000 2  100             Rx   d 8 FC 2F 88 B7 01 00 00 00
 21.200000 2  100             Rx   d 8 DC 2F 88 B7 01 00 00 00
 21.201000 2  200             Rx   d 4 2E 07 00 00
 21.220000 2  100             Rx   d 8 B3 2F 88 B8 01 00 00 00
 21.240000 2  100             Rx   d 8 F3 2F 88 B8 01 00 00 00
 21.251000 2  200             Rx   d 4 51 07 00 00
 21.260000 2  100             Rx   d 8 24 30 88 B8 01 00 00 00
 21.280000 2  100             Rx   d 8 07 30 88 B8 01 00 00 00
 21.300000 2  100             Rx   d 8 91 30 88 B8 01 00 00 00
 21.301000 2  200             Rx   d 4 75 07 00 00
 21.320000 2  100             Rx   d 8 06 30 89 B8 01 00 00 00
 21.340000 2  100             Rx   d 8 67 30 89 B8 01 00 00 00
 21.351000 2  200             Rx   d 4 99 07 00 00
 21.360000 2  100             Rx   d 8 46 30 89 B9 01 00 00 00
 21.380000 2  100             Rx   d 8 F0 30 89 B9 01 00 00 00
 21.400000 2  100             Rx   d 8 2A 31 89 B9 01 00 00 00
 21.401000 2  200             Rx   d 4 BE 07 00 00
 21.420000 2  100             Rx   d 8 66 31 89 B9 01 00 00 00
 21.440000 2  100             Rx   d 8 26 31 89 B9 01 00 00 00
 21.451000 2  200             Rx   d 4 E3 07 00 00
 21.460000 2  100             Rx   d 8 98 31 89 B9 01 00 00 00
 21.480000 2  100             Rx   d 8 47 31 89 B9 01 00 00 00
 21.500000 2  100             Rx   d 8 70 31 89 B9 01 00 00 00
 21.501000 2  200             Rx   d 4 0A 08 00 00
 21.520000 2  100             Rx   d 8 25 31 89 BA 01 00 00 00
 21.540000 2  100             Rx   d 8 DB 31 89 BA 01 00 00 00
 21.551000 2  200             Rx   d 4 30 08 00 00
 21.560000 2  100             Rx   d 8 12 32 89 BA 01 00 00 00
 21.580000 2  100             Rx   d 8 81 31 89 BA 01 00 00 00
 21.600000 2  100             Rx   d 8 89 31 89 BA 01 00 00 00
 21.601000 2  200             Rx   d 4 58 08 00 00
 21.620000 2  100             Rx   d 8 5B 32 89 BA 01 00 00 00
 21.640000 2  100             Rx   d 8 4A 32 89 BA 01 00 00 00
 21.651000 2  200             Rx   d 4 80 08 00 00
 21.660000 2  100             Rx   d 8 1F 32 89 BA 01 00 00 00
 21.680000 2  100             Rx   d 8 AF 32 89 BA 01 00 00 00
 21.700000 2  100             Rx   d 8 5F 32 89 BA 01 00 00 00
 21.701000 2  200             Rx   d 4 A8 08 00 00
 21.720000 2  100             Rx   d 8 09 32 89 BA 01 00 00 00
 21.740000 2  100             Rx   d 8 55 32 89 BA 01 00 00 00
 21.751000 2  200             Rx   d 4 D1 08 00 00
 21.760000 2  100             Rx   d 8 34 32 89 BB 01 00 00 00
 21.780000 2  100             Rx   d 8 13 33 89 BB 01 00 00 00
 21.800000 2  100             Rx   d 8 20 33 89 BB 01 00 00 00
 21.801000 2  200             Rx   d 4 FB 08 00 00
 21.820000 2  100             Rx   d 8 13 33 89 BB 01 00 00 00
 21.840000 2  100             Rx   d 8 DB 32 89 BB 01 00 00 00
 21.851000 2  200             Rx   d 4 25 09 00 00
 21.860000 2  100             Rx   d 8 27 33 89 BB 01 00 00 00
 21.880000 2  100             Rx   d 8 FA 32 89 BB 01 00 00 00
 21.900000 2  100             Rx   d 8 FF 32 89 BB 01 00 00 00
 21.901000 2  200             Rx   d 4 50 09 00 00
 21.920000 2  100             Rx   d 8 32 33 89 BB 01 00 00 00
 21.940000 2  100             Rx   d 8 63 33 89 BB 01 00 00 00
 21.951000 2  200             Rx   d 4 7C 09 00 00
 21.960000 2  100             Rx   d 8 1D 33 89 BB 01 00 00 00
 21.980000 2  100             Rx   d 8 F4 33 89 BB 01 00 00 00
 22.000000 2  100             Rx   d 8 B4 33 89 BB 01 00 00 00
 22.001000 2  200             Rx   d 4 A8 09 00 00
 22.002000 2  3A0             Rx   d 8 EB 40 11 B2 A7 4F E6 A5
 22.020000 2  100             Rx   d 8 59 33 89 BB 01 00 00 00
 22.040000 2  100             Rx   d 8 AD 33 89 BB 01 00 00 00
 22.051000 2  200             Rx   d 4 D4 09 00 00
 22.060000 2  100             Rx   d 8 11 34 89 BB 01 00 00 00
 22.080000 2  100             Rx   d 8 F5 33 89 BB 01 00 00 00
 22.100000 2  100             Rx   d 8 9B 33 89 BB 01 00 00 00
 22.101000 2  200             Rx   d 4 01 0A 00 00
 22.120000 2  100             Rx   d 8 FF 33 89 BB 01 00 00 00
 22.140000 2  100             Rx   d 8 76 34 89 BB 01 00 00 00
 22.151000 2  200             Rx   d 4 2F 0A 00 00
 22.160000 2  100             Rx   d 8 ED 33 89 BB 01 00 00 00
 22.180000 2  100             Rx   d 8 F4 33 89 BB 01 00 00 00
 22.200000 2  100             Rx   d 8 20 34 89 BB 01 00 00 00
 22.201000 2  200             Rx   d 4 5D 0A 00 00
 22.220000 2  100             Rx   d 8 92 34 89 BB 01 00 00 00
 22.240000 2  100             Rx   d 8 C5 34 89 BB 01 00 00 00
 22.251000 2  200             Rx   d 4 8C 0A 00 00
 22.260000 2  100             Rx   d 8 30 34 89 BB 01 00 00 00
 22.280000 2  100             Rx   d 8 41 34 89 BB 01 00 00 00
 22.300000 2  100             Rx   d 8 68 34 89 BB 01 00 00 00
 22.301000 2  200             Rx   d 4 BB 0A 00 00
 22.320000 2  100             Rx   d 8 8B 34 89 BB 01 00 00 00
 22.340000 2  100             Rx   d 8 CA 34 89 BB 01 00 00 00
 22.351000 2  200             Rx   d 4 EB 0A 00 00
 22.360000 2  100             Rx   d 8 83 34 89 BB 01 00 00 00
 22.380000 2  100             Rx   d 8 BB 34 89 BB 01 00 00 00
 22.400000 2  100             Rx   d 8 A8 34 89 BA 01 00 00 00
 22.401000 2  200             Rx   d 4 1B 0B 00 00
 22.420000 2  100             Rx   d 8 74 35 89 BA 01 00 00 00
 22.440000 2  100             Rx   d 8 48 35 89 BA 01 00 00 00
 22.451000 2  200             Rx   d 4 4C 0B 00 00
 22.460000 2  100             Rx   d 8 C0 34 89 BA 01 00 00 00
 22.480000 2  100             Rx   d 8 9C 35 89 BA 01 00 00 00
 22.500000 2  100             Rx   d 8 DC 34 89 BA 01 00 00 00
 22.501000 2  200             Rx   d 4 7D 0B 00 00
 22.520000 2  100             Rx   d 8 2D 35 89 BA 01 00 00 00
 22.540000 2  100             Rx   d 8 CB 35 89 BA 01 00 00 00
 22.551000 2  200             Rx   d 4 AF 0B 00 00
 22.560000 2  100             Rx   d 8 AB 35 89 BA 01 00 00 00
 22.580000 2  100             Rx   d 8 A9 35 89 BA 01 00 00 00
 22.600000 2  100             Rx   d 8 6E 35 89 BA 01 00 00 00
 22.601000 2  200             Rx   d 4 E1 0B 00 00
 22.620000 2  100             Rx   d 8 41 35 89 B9 01 00 00 00
 22.640000 2  100             Rx   d 8 B8 35 89 B9 01 00 00 00
 22.651000 2  200             Rx   d 4 14 0C 00 00
 22.660000 2  100             Rx   d 8 44 35 89 B9 01 00 00 00
 22.680000 2  100             Rx   d 8 68 35 89 B9 01 00 00 00
 22.700000 2  100             Rx   d 8 9F 35 89 B9 01 00 00 00
 22.701000 2  200             Rx   d 4 47 0C 00 00
 22.720000 2  100             Rx   d 8 55 35 89 B9 01 00 00 00
 22.740000 2  100             Rx   d 8 B7 35 89 B9 01 00 00 00
 22.751000 2  200             Rx   d 4 7A 0C 00 00
 22.760000 2  100             Rx   d 8 20 36 89 B9 01 00 00 00
 22.780000 2  100             Rx   d 8 13 36 89 B9 01 00 00 00
 22.800000 2  100             Rx   d 8 EF 35 89 B8 01 00 00 00
 22.801000 2  200             Rx   d 4 AE 0C 00 00
 22.820000 2  100             Rx   d 8 19 36 89 B8 01 00 00 00
 22.840000 2  100             Rx   d 8 FA 35 89 B8 01 00 00 00
 22.851000 2  200             Rx   d 4 E2 0C 00 00
 22.860000 2  100             Rx   d 8 B6 35 89 B8 01 00 00 00
 22.880000 2  100             Rx   d 8 2E 36 89 B8 01 00 00 00
 22.900000 2  100             Rx   d 8 07 36 89 B8 01 00 00 00
 22.901000 2  200             Rx   d 4 17 0D 00 00
 22.920000 2  100             Rx   d 8 60 36 89 B7 01 00 00 00
 22.940000 2  100             Rx   d 8 91 36 89 B7 01 00 00 00
 22.951000 2  200             Rx   d 4 4C 0D 00 00
 22.960000 2  100             Rx   d 8 26 36 89 B7 01 00 00 00
 22.980000 2  100             Rx   d 8 51 36 89 B7 01 00 00 00
 23.000000 2  100             Rx   d 8 82 36 89 B7 01 00 00 00
 23.001000 2  200             Rx   d 4 82 0D 00 00
 23.002000 2  3A0             Rx   d 8 D7 75 75 5C 3F E8 DD A0
 23.020000 2  100             Rx   d 8 14 36 89 B7 01 00 00 00
 23.040000 2  100             Rx   d 8 85 36 89 B6 01 00 00 00
 23.051000 2  200             Rx   d 4 B8 0D 00 00
 23.060000 2  100             Rx   d 8 BA 36 89 B6 01 00 00 00
 23.080000 2  100             Rx   d 8 24 36 89 B6 01 00 00 00
 23.100000 2  100             Rx   d 8 51 36 89 B6 01 00 00 00
 23.101000 2  200             Rx   d 4 EF 0D 00 00
 23.120000 2  100             Rx   d 8 A2 36 89 B6 01 00 00 00
 23.140000 2  100             Rx   d 8 22 36 89 B5 01 00 00 00
 23.151000 2  200             Rx   d 4 25 0E 00 00
 23.160000 2  100             Rx   d 8 CE 36 89 B5 01 00 00 00
 23.180000 2  100             Rx   d 8 7B 36 89 B5 01 00 00 00
 23.200000 2  100             Rx   d 8 11 36 89 B5 01 00 00 00
 23.201000 2  200             Rx   d 4 5C 0E 00 00
 23.220000 2  100             Rx   d 8 DF 36 89 B5 01 00 00 00
 23.240000 2  100             Rx   d 8 91 36 89 B4 01 00 00 00
 23.251000 2  200             Rx   d 4 94 0E 00 00
 23.260000 2  100             Rx   d 8 B8 36 89 B4 01 00 00 00
 23.280000 2  100             Rx   d 8 EF 36 89 B4 01 00 00 00
 23.300000 2  100             Rx   d 8 F7 36 89 B4 01 00 00 00
 23.301000 2  200             Rx   d 4 CC 0E 00 00
 23.320000 2  100             Rx   d 8 73 36 89 B3 01 00 00 00
 23.340000 2  100             Rx   d 8 2A 36 89 B3 01 00 00 00
 23.351000 2  200             Rx   d 4 04 0F 00 00
 23.360000 2  100             Rx   d 8 F2 36 89 B3 01 00 00 00
 23.380000 2  100             Rx   d 8 06 37 89 B3 01 00 00 00
 23.400000 2  100             Rx   d 8 48 36 89 B2 01 00 00 00
 23.401000 2  200             Rx   d 4 3D 0F 00 00
 23.420000 2  100             Rx   d 8 6D 36 89 B2 01 00 00 00
 23.440000 2  100             Rx   d 8 67 36 89 B2 01 00 00 00
 23.451000 2  200             Rx   d 4 76 0F 00 00
 23.460000 2  100             Rx   d 8 E0 36 89 B2 01 00 00 00
 23.480000 2  100             Rx   d 8 1A 37 89 B1 01 00 00 00
 23.500000 2  100             Rx   d 8 66 36 89 B1 01 00 00 00
 23.501000 2  200             Rx   d 4 AF 0F 00 00
 23.520000 2  100             Rx   d 8 8A 36 89 B1 01 00 00 00
 23.540000 2  100             Rx   d 8 03 37 89 B1 01 00 00 00
 23.551000 2  200             Rx   d 4 E8 0F 00 00
 23.560000 2  100             Rx   d 8 A5 36 89 B0 01 00 00 00
 23.580000 2  100             Rx   d 8 69 36 89 B0 01 00 00 00
 23.600000 2  100             Rx   d 8 A9 36 89 B0 01 00 00 00
 23.601000 2  200             Rx   d 4 22 10 00 00
 23.620000 2  100             Rx   d 8 3A 36 89 AF 01 00 00 00
 23.640000 2  100             Rx   d 8 F4 36 89 AF 01 00 00 00
 23.651000 2  200             Rx   d 4 5C 10 00 00
 23.660000 2  100             Rx   d 8 8D 36 89 AF 01 00 00 00
 23.680000 2  100             Rx   d 8 85 36 89 AF 01 00 00 00
 23.700000 2  100             Rx   d 8 E3 36 89 AE 01 00 00 00
 23.701000 2  200             Rx   d 4 97 10 00 00
 23.720000 2  100             Rx   d 8 9D 36 89 AE 01 00 00 00
